# Hz S RI R 50
6.25e+09  0.08829  0.08949  0.009701  -0.006661  0.002192  0.007898  0.1694  0.4834
6.251e+09  0.1183  0.04139  0.002919  -0.0006392  0.000255  0.009651  0.3769  0.3986
6.252e+09  0.1292  0.01521  -0.002944  -0.006683  0.01104  -0.009101  0.5512  0.2236
6.254e+09  0.1274  -0.04553  -0.006093  -0.002412  -0.0236  0.002135  0.6129  0.008819
6.255e+09  0.1051  -0.08989  -0.01306  0.01436  -0.009907  0.00973  0.5876  -0.2309
6.256e+09  0.05778  -0.1202  0.004162  -0.0119  -0.004694  0.002358  0.4786  -0.4478
6.258e+09  0.0327  -0.1463  0.0002142  -0.004392  -0.006149  0.006159  0.2906  -0.6185
6.259e+09  -0.02181  -0.127  -0.007589  -0.0128  -0.00828  0.001553  0.0366  -0.6798
6.26e+09  -0.06278  -0.119  0.006079  7.828e-05  0.01276  0.01228  -0.2173  -0.6592
6.261e+09  -0.08958  -0.07701  0.002526  0.004833  -0.0004829  0.003774  -0.4518  -0.5407
6.262e+09  -0.1228  -0.04338  -0.001203  -0.00264  0.002726  0.01642  -0.62  -0.3421
6.264e+09  -0.1266  0.01114  -0.003137  -0.002905  -0.01229  -0.0107  -0.7153  -0.1065
6.265e+09  -0.1233  0.05413  0.007495  0.002356  0.0003934  -0.006233  -0.719  0.1574
6.266e+09  -0.09376  0.07877  0.0004036  0.005156  -0.02628  -0.001854  -0.6192  0.3972
6.268e+09  -0.06237  0.1018  -0.00292  -0.0108  0.008321  -0.001662  -0.4307  0.5907
6.269e+09  -0.02953  0.1174  -0.002414  -0.006097  -0.0226  0.02514  -0.1948  0.7107
6.27e+09  0.02469  0.1213  -0.003327  0.004791  -0.006518  -0.02715  0.07308  0.7435
6.271e+09  0.06215  0.1167  -0.01412  -0.003  0.002858  0.00837  0.3245  0.6738
6.272e+09  0.09491  0.07526  0.0004533  -0.007153  -0.01323  0.0001965  0.5412  0.5164
6.274e+09  0.1187  0.03441  0.0008264  -0.003654  -0.008025  -0.01049  0.699  0.3043
6.275e+09  0.1108  -0.01204  -0.002432  -0.005925  -0.004825  -0.01457  0.7567  0.03115
6.276e+09  0.1113  -0.06168  -0.002616  0.005743  0.0007361  -0.00749  0.7278  -0.2317
6.278e+09  0.08837  -0.0894  -0.009144  0.0112  0.007457  -0.01075  0.6096  -0.4679
6.279e+09  0.04604  -0.108  0.006573  -0.008707  -0.01526  0.008959  0.4144  -0.6482
6.28e+09  0.02833  -0.1222  -0.001428  -0.007025  -0.00129  0.0006482  0.1586  -0.7707
6.281e+09  -0.02548  -0.1168  -0.001449  -0.009537  0.0002217  -0.002976  -0.1123  -0.7753
6.282e+09  -0.05615  -0.1023  -0.005721  0.01227  0.0008911  0.01166  -0.368  -0.6815
6.284e+09  -0.09017  -0.0796  -0.002106  0.01138  -0.01413  -0.00378  -0.5878  -0.5131
6.285e+09  -0.1288  -0.04639  0.003689  -0.002563  0.001232  0.009826  -0.7412  -0.2893
6.286e+09  -0.1356  0.007227  0.002307  -0.005589  -0.01  0.004735  -0.8065  -0.02051
6.288e+09  -0.1059  0.04404  -0.004519  -0.006824  -0.001911  -0.002142  -0.7608  0.2759
6.289e+09  -0.08896  0.08265  -0.002523  -0.001512  -0.01255  0.01064  -0.625  0.5018
6.29e+09  -0.06365  0.118  -0.003473  -0.008259  0.01586  0.015  -0.4087  0.6973
6.291e+09  -0.02072  0.1367  -0.002563  0.00504  0.004241  0.02173  -0.147  0.7971
6.292e+09  0.04367  0.1247  0.004037  0.001679  -0.006129  -0.008666  0.1272  0.8048
6.294e+09  0.0691  0.09807  -0.009424  -0.001609  -0.007159  -0.009391  0.4064  0.7267
6.295e+09  0.09373  0.07602  -0.001519  -0.006784  0.01488  0.009345  0.624  0.5394
6.296e+09  0.1302  0.005495  -0.003927  -0.0009491  0.004396  0.002787  0.7664  0.2879
6.298e+09  0.1275  -0.02335  0.005581  -0.002925  0.004278  0.00383  0.8348  0.005541
6.299e+09  0.1106  -0.05628  0.001068  0.009455  -0.009528  -0.004426  0.7907  -0.277
6.3e+09  0.1024  -0.09096  -0.00124  -0.001348  -0.004147  -0.00835  0.6521  -0.5257
6.301e+09  0.04605  -0.1228  0.004123  -0.0111  0.006196  0.01053  0.4216  -0.719
6.302e+09  0.01048  -0.1174  0.003951  -0.01221  -0.008258  0.01258  0.1447  -0.8322
6.304e+09  -0.0491  -0.1319  0.0003972  -0.0006914  -0.006445  -0.004456  -0.1471  -0.8334
6.305e+09  -0.07945  -0.1261  0.005421  -0.006217  0.0118  0.003735  -0.4195  -0.737
6.306e+09  -0.1122  -0.06298  0.003382  0.0006983  0.01389  -0.002092  -0.6435  -0.554
6.308e+09  -0.1382  -0.03802  0.009053  -0.001315  0.0107  -0.01773  -0.8022  -0.3004
6.309e+09  -0.1254  0.01173  -0.0005263  0.01108  -0.01179  -5.925e-05  -0.8675  -0.008398
6.31e+09  -0.1284  0.07093  0.0009687  -0.0006269  -0.006627  0.01599  -0.8112  0.286
6.311e+09  -0.09868  0.1037  0.003684  -0.006242  -0.001604  -0.002762  -0.6662  0.5621
6.312e+09  -0.0402  0.1219  0.004715  0.002007  -0.02221  0.00376  -0.4522  0.7462
6.314e+09  0.01492  0.144  0.01281  0.003269  -0.02438  0.01114  -0.1672  0.863
6.315e+09  0.03914  0.1255  0.001152  0.007243  0.005196  0.003112  0.1408  0.8517
6.316e+09  0.06897  0.1255  -0.009994  0.0001258  -0.01118  0.002964  0.4303  0.7825
6.318e+09  0.1351  0.07982  0.004037  0.02095  0.01306  -8.444e-05  0.6741  0.58
6.319e+09  0.1304  0.0329  -0.009323  -0.004284  -0.00243  0.006153  0.8357  0.3171
6.32e+09  0.1431  -0.02858  -0.001148  0.005117  0.006313  -0.01086  0.8926  -0.001356
6.321e+09  0.1326  -0.06674  0.007216  0.004032  -0.009583  0.009344  0.8376  -0.2858
6.322e+09  0.0941  -0.0907  0.007195  -0.003803  0.004967  0.001993  0.6897  -0.5631
6.324e+09  0.08206  -0.1405  0.005424  -0.003495  0.01791  0.01431  0.4614  -0.7701
6.325e+09  0.01682  -0.1498  -0.008947  -0.003952  0.001082  0.003567  0.1707  -0.8823
6.326e+09  -0.04223  -0.1552  0.002961  0.001018  -0.01936  0.003296  -0.1407  -0.889
6.328e+09  -0.1109  -0.1199  -0.009548  -0.009897  -0.01394  -0.009111  -0.4364  -0.7918
6.329e+09  -0.1416  -0.08946  -0.004246  -0.01045  -0.0002835  0.0002164  -0.6838  -0.599
6.33e+09  -0.1432  -0.0248  -0.004913  0.009611  0.0059  -0.003569  -0.8543  -0.3364
6.331e+09  -0.1608  0.01565  0.0001637  0.003914  0.004773  0.001569  -0.8999  -0.0236
6.332e+09  -0.1421  0.06141  -0.01119  0.006043  -0.002277  -0.007524  -0.8648  0.2842
6.334e+09  -0.1322  0.1228  -0.005642  0.01354  0.0006369  -0.002382  -0.7172  0.5666
6.335e+09  -0.07964  0.1441  -0.007931  0.008596  -0.006541  0.001596  -0.4878  0.7763
6.336e+09  -0.004757  0.1633  0.000782  -0.001152  -0.009936  0.01287  -0.2016  0.9041
6.338e+09  0.01965  0.155  -0.004783  0.003232  0.005373  0.006466  0.1312  0.92
6.339e+09  0.1007  0.1313  -0.001309  -0.0006366  0.00875  -0.008555  0.4318  0.8113
6.34e+09  0.1464  0.09868  -0.007734  -0.001534  0.01339  0.01064  0.6786  0.6278
6.341e+09  0.1691  0.03001  -0.006652  -0.0007835  0.001845  0.0038  0.8548  0.3462
6.342e+09  0.1624  -0.0152  0.003286  0.001538  0.01974  -0.01375  0.9313  0.03939
6.344e+09  0.1645  -0.06585  -0.005207  -0.001451  -0.005129  0.01693  0.8923  -0.2797
6.345e+09  0.1232  -0.1367  -0.0009221  0.002139  -0.01308  -0.008875  0.7528  -0.5638
6.346e+09  0.0785  -0.1525  0.01829  -0.0008291  0.006075  0.003824  0.4966  -0.7766
6.348e+09  0.01218  -0.1732  0.007811  -0.0006196  -0.01747  -0.0008437  0.2084  -0.9016
6.349e+09  -0.05896  -0.1592  -0.01541  0.002065  -0.003549  0.004732  -0.1155  -0.9274
6.35e+09  -0.09131  -0.1543  0.01507  -0.008246  -0.008007  0.01125  -0.4201  -0.8334
6.351e+09  -0.1457  -0.1094  0.003005  0.01222  0.005513  0.00843  -0.6721  -0.6434
6.352e+09  -0.1892  -0.04857  -0.01066  -0.006801  0.008118  -0.02029  -0.8693  -0.3924
6.354e+09  -0.1743  0.0256  -0.006653  -0.001735  0.008202  -0.02702  -0.9419  -0.06151
6.355e+09  -0.169  0.07297  -0.003938  -0.001401  0.007235  -0.01288  -0.9164  0.2697
6.356e+09  -0.1335  0.1451  0.004265  -0.01238  -0.01276  0.008207  -0.7739  0.5556
6.358e+09  -0.07777  0.1624  0.001789  -0.004106  -0.001418  0.004097  -0.5316  0.7828
6.359e+09  -0.005943  0.1734  0.004603  0.005893  0.00348  -0.004922  -0.2287  0.9241
6.36e+09  0.03991  0.1844  -0.01133  0.002413  0.006445  -0.009073  0.1003  0.9437
6.361e+09  0.1135  0.1672  0.004426  -0.002076  0.002443  0.01698  0.4137  0.8541
6.362e+09  0.1488  0.1054  -0.009994  0.01624  -0.004634  -0.001565  0.6933  0.6615
6.364e+09  0.1988  0.06588  -0.01218  0.002673  0.01628  0.004789  0.8727  0.3983
6.365e+09  0.1844  -0.01208  -0.01109  0.006196  0.005346  -0.005351  0.9471  0.07449
6.366e+09  0.1683  -0.06983  0.0007384  -0.0008013  0.002738  -0.004913  0.9265  -0.2616
6.368e+09  0.1365  -0.1195  -0.007986  -0.009008  0.01595  0.004299  0.7997  -0.5557
6.369e+09  0.07889  -0.1659  0.00224  0.001118  -0.009266  -0.002532  0.5483  -0.778
6.37e+09  0.01456  -0.2046  0.003362  -0.006938  4.01e-05  -0.006528  0.2408  -0.9157
6.371e+09  -0.04887  -0.1961  0.00514  -0.004888  0.004139  -0.009364  -0.08184  -0.9353
6.372e+09  -0.1005  -0.1791  0.003356  0.01168  0.007952  0.01061  -0.394  -0.8686
6.374e+09  -0.1556  -0.1311  -7.138e-05  0.0005675  0.008949  0.003801  -0.6723  -0.6746
6.375e+09  -0.198  -0.06734  0.003107  0.002263  0.003668  0.003724  -0.8698  -0.4026
6.376e+09  -0.1976  -0.000269  0.004493  0.002142  -0.007458  0.001305  -0.9392  -0.09717
6.378e+09  -0.1965  0.07575  -0.006715  0.00105  0.00946  -0.0008762  -0.9247  0.2317
6.379e+09  -0.1489  0.1338  0.01386  -0.0009956  0.00439  0.009732  -0.7808  0.5359
6.38e+09  -0.09759  0.1861  0.0005181  -0.001603  0.0008111  -0.007648  -0.5611  0.7555
6.381e+09  -0.02014  0.2022  0.006215  -0.008439  0.005915  0.003117  -0.2636  0.9078
6.382e+09  0.03563  0.21  0.01513  -0.006831  -0.001279  -0.01201  0.05835  0.9413
6.384e+09  0.09925  0.2009  0.001137  0.004628  -0.001131  -0.002343  0.3722  0.8567
6.385e+09  0.1538  0.1557  0.0002086  0.00372  0.0008541  -0.0002267  0.642  0.6802
6.386e+09  0.1936  0.08256  -0.007675  -0.01224  -0.0009367  0.0008616  0.8289  0.4207
6.388e+09  0.2265  0.003877  0.01125  0.007439  -0.0212  -0.00245  0.9273  0.115
6.389e+09  0.1895  -0.06301  -0.0005032  0.0002776  0.007245  0.02046  0.9196  -0.2099
6.39e+09  0.1786  -0.1204  0.002047  0.001074  0.001542  0.009927  0.7898  -0.5083
6.391e+09  0.1201  -0.1825  0.02708  -0.003186  -0.002126  -0.008485  0.5799  -0.7336
6.392e+09  0.04449  -0.2362  0.003266  0.007694  0.006433  0.006931  0.2782  -0.8862
6.394e+09  -0.02792  -0.2124  -0.002844  -0.003672  0.01348  0.003311  -0.0479  -0.9231
6.395e+09  -0.0958  -0.1951  -0.01056  -0.002242  0.01146  0.009937  -0.3459  -0.8567
6.396e+09  -0.1915  -0.1478  0.01309  -0.00805  -0.001646  -0.000146  -0.6125  -0.6908
6.398e+09  -0.2063  -0.09092  -0.005521  -0.003549  -0.005445  0.007485  -0.8041  -0.4571
6.399e+09  -0.2332  -0.01791  -0.002158  -0.000862  -0.0009963  0.001355  -0.9016  -0.1313
6.4e+09  -0.2169  0.06547  -0.003501  0.03158  0.005717  -0.01363  -0.9056  0.1776
6.401e+09  -0.1713  0.1301  -0.002592  -0.009371  -0.007242  -0.001644  -0.8076  0.4723
6.402e+09  -0.122  0.1943  -0.00585  -0.00189  0.001808  0.005139  -0.5845  0.7183
6.404e+09  -0.05804  0.1996  -0.006824  0.003496  0.01137  0.0148  -0.3091  0.8701
6.405e+09  0.004282  0.2343  0.006457  -0.001412  -0.008549  0.004247  -0.00921  0.9228
6.406e+09  0.07432  0.201  -0.006402  0.005811  -0.001064  -0.002753  0.3245  0.8818
6.408e+09  0.1509  0.1558  -0.003068  0.0007796  -0.003894  -0.004032  0.5834  0.7072
6.409e+09  0.1837  0.08942  0.006822  0.01419  0.006044  -0.008667  0.7927  0.4534
6.41e+09  0.2231  0.0319  -0.01002  -0.007182  0.002236  0.003336  0.898  0.1792
6.411e+09  0.2157  -0.04961  -0.01718  -0.00178  -0.003633  0.007581  0.8806  -0.1505
6.412e+09  0.1764  -0.1256  0.01735  0.00472  -0.01239  0.007466  0.782  -0.4373
6.414e+09  0.1419  -0.1839  -0.0003924  0.0009202  0.003512  -0.02209  0.5997  -0.6897
6.415e+09  0.08007  -0.2069  0.00507  -0.01206  0.004556  -0.003093  0.3218  -0.8406
6.416e+09  -0.004898  -0.2394  -0.003522  -0.0117  -0.02089  0.001903  0.03101  -0.8911
6.418e+09  -0.06742  -0.2128  0.008255  -0.001994  0.001919  0.01254  -0.2777  -0.8703
6.419e+09  -0.156  -0.1787  -0.01408  -0.002392  0.005834  -0.007042  -0.5611  -0.7113
6.42e+09  -0.2029  -0.1145  -0.00602  0.004448  0.002467  -0.002348  -0.76  -0.486
6.421e+09  -0.2166  -0.03268  -0.004805  -0.0003414  -0.008353  0.007755  -0.8744  -0.1848
6.422e+09  -0.2183  0.04261  0.007094  -0.006301  -0.002415  -0.007275  -0.8705  0.114
6.424e+09  -0.183  0.1177  -0.01866  -0.005446  0.009936  -0.0004563  -0.783  0.3939
6.425e+09  -0.1591  0.1725  0.01695  0.002567  0.003153  -0.01607  -0.5954  0.652
6.426e+09  -0.07231  0.2154  0.01259  0.00339  0.004399  -0.005475  -0.3526  0.8036
6.428e+09  -0.01966  0.2355  -0.002663  -0.007561  -0.006145  0.01472  -0.06073  0.8889
6.429e+09  0.08962  0.2137  -0.01014  -0.006933  -0.006912  0.003328  0.2428  0.8346
6.43e+09  0.1466  0.1739  -0.02026  0.008304  0.002626  0.005407  0.5181  0.7114
6.431e+09  0.217  0.1329  0.004536  -0.01304  -0.0129  0.01339  0.7353  0.5042
6.432e+09  0.2215  0.04039  -0.00842  -0.0002461  -0.001589  -0.01404  0.861  0.216
6.434e+09  0.2225  -0.03081  -0.0112  0.0001717  -0.009489  -0.004941  0.8683  -0.08169
6.435e+09  0.2091  -0.1216  -0.001053  -0.00604  0.005619  0.01002  0.7789  -0.3837
6.436e+09  0.1831  -0.1723  0.002659  -0.002664  -0.01233  -0.01223  0.6021  -0.6168
6.438e+09  0.09828  -0.2184  -0.00949  0.001215  0.01111  -0.007818  0.3576  -0.7883
6.439e+09  0.006343  -0.2473  -0.00221  -0.002695  0.001106  -0.01622  0.05915  -0.8499
6.44e+09  -0.06091  -0.2318  0.006621  -0.0006547  0.0004094  -0.0004332  -0.2433  -0.8258
6.441e+09  -0.145  -0.2014  0.01644  -0.001166  -0.005102  -0.005166  -0.5046  -0.7046
6.442e+09  -0.192  -0.1527  -0.001094  -0.003887  0.003577  0.008251  -0.6986  -0.4852
6.444e+09  -0.2236  -0.06148  -0.003979  -0.007331  0.009422  0.0137  -0.8272  -0.2168
6.445e+09  -0.2374  0.01661  -0.007898  0.005866  -0.0002498  -0.02307  -0.8476  0.08785
6.446e+09  -0.2091  0.0949  0.005057  -0.005533  -0.003902  0.005354  -0.7621  0.3713
6.448e+09  -0.168  0.1721  -0.01374  -0.01632  -0.00843  0.005276  -0.5971  0.5925
6.449e+09  -0.08874  0.2104  -0.001401  0.003611  -0.01008  0.008969  -0.3629  0.7644
6.45e+09  -0.02814  0.2235  -0.0136  -0.00331  0.007469  0.0008535  -0.05806  0.8235
6.451e+09  0.04981  0.2276  -0.0002958  0.001911  0.002415  0.00448  0.2153  0.817
6.452e+09  0.1315  0.2045  0.006251  0.002155  0.004919  -0.009364  0.4847  0.6808
6.454e+09  0.1906  0.1413  -0.00361  -0.0009717  -0.009404  0.02121  0.6972  0.4745
6.455e+09  0.2489  0.06843  -0.005486  -0.002625  0.01462  0.01519  0.8082  0.2061
6.456e+09  0.2318  -0.004489  0.01431  -0.003742  0.002875  -0.001201  0.8174  -0.06242
6.458e+09  0.2279  -0.1022  -0.01067  -0.008596  0.006926  0.01616  0.7649  -0.3555
6.459e+09  0.1644  -0.137  -0.003617  -0.01096  0.01081  -0.003008  0.5667  -0.596
6.46e+09  0.1095  -0.2099  -0.001331  0.007056  -0.006577  0.0115  0.3501  -0.7547
6.461e+09  0.04211  -0.2364  0.001509  -0.001876  0.01138  0.0171  0.06356  -0.8177
6.462e+09  -0.05429  -0.2311  -0.01724  0.00612  -0.006117  0.0003903  -0.2184  -0.7814
6.464e+09  -0.1263  -0.199  0.006497  0.004014  -0.009336  -9.887e-05  -0.4743  -0.6527
6.465e+09  -0.1902  -0.1521  -0.009205  -0.003104  -0.00437  -0.01019  -0.6547  -0.4539
6.466e+09  -0.218  -0.06671  -0.01034  0.004666  -0.006912  -0.01202  -0.7815  -0.2041
6.468e+09  -0.2234  0.007128  0.002189  -0.01118  -0.01268  -0.00808  -0.7997  0.08108
6.469e+09  -0.2264  0.08148  0.003424  0.009437  -0.0002725  -0.02172  -0.7222  0.3435
6.47e+09  -0.1794  0.1521  0.00318  0.01288  -0.007628  -0.00647  -0.5658  0.566
6.471e+09  -0.1275  0.2029  0.01037  -0.001897  0.005384  0.01392  -0.3244  0.7121
6.472e+09  -0.02777  0.2461  -0.001375  0.003906  0.0156  0.007582  -0.04953  0.7914
6.474e+09  0.03118  0.2457  0.01014  -0.002115  0.00544  0.01098  0.2223  0.7627
6.475e+09  0.1263  0.2184  0.003379  -0.01064  -0.005591  0.004262  0.4624  0.6388
6.476e+09  0.1755  0.1366  -0.001776  -0.005858  0.02291  -0.01414  0.6679  0.4599
6.478e+09  0.2231  0.08198  0.006572  0.0005928  -0.01569  -0.01234  0.7561  0.1908
6.479e+09  0.2412  -0.005754  0.008612  0.005344  -0.0201  0.002649  0.7871  -0.0816
6.48e+09  0.2192  -0.06712  -0.0008187  -0.00971  0.003609  0.007336  0.7041  -0.3326
6.481e+09  0.1836  -0.1508  0.0002276  0.005294  -0.00548  0.01071  0.5468  -0.5609
6.482e+09  0.131  -0.2035  0.008387  0.007182  0.001903  -0.005143  0.3123  -0.7177
6.484e+09  0.04767  -0.2405  -0.001535  -0.0008747  -0.003107  -0.004808  0.05198  -0.794
6.485e+09  -0.02975  -0.2215  0.007612  -0.006118  -0.005542  0.02194  -0.2209  -0.7376
6.486e+09  -0.1123  -0.1987  0.006506  -0.003145  -0.003326  -0.01117  -0.4492  -0.629
6.488e+09  -0.1834  -0.1716  -0.001253  0.01417  -0.006864  -0.0133  -0.6425  -0.446
6.489e+09  -0.2324  -0.07765  0.006047  0.002983  0.006294  0.009515  -0.7521  -0.1745
6.49e+09  -0.2293  -0.01495  -0.0081  -0.006141  -0.003292  -0.01493  -0.756  0.1002
6.491e+09  -0.2482  0.07592  -0.001158  0.006631  -0.007386  -0.002669  -0.6876  0.3468
6.492e+09  -0.1888  0.1149  0.009103  0.006211  -0.01727  0.003978  -0.543  0.5556
6.494e+09  -0.1186  0.2009  0.008281  -0.00524  -0.00317  0.004664  -0.3098  0.6983
6.495e+09  -0.04983  0.2266  0.009834  0.0002103  -0.006847  0.0009646  -0.04231  0.7674
6.496e+09  0.02843  0.2269  0.005686  -0.00807  -0.01503  0.008366  0.2148  0.741
6.498e+09  0.1046  0.2163  0.00354  0.007263  -0.02261  -0.01037  0.465  0.6279
6.499e+09  0.1704  0.1624  -0.002813  0.004085  0.0003556  0.004648  0.6516  0.4151
6.5e+09  0.2183  0.0687  -0.01161  0.001019  -0.004441  -0.009234  0.7348  0.1585
6.501e+09  0.24  0.01914  0.004714  -0.003746  0.002423  -0.0003363  0.7589  -0.1055
6.502e+09  0.2214  -0.0721  -0.005259  -0.0032  -0.004424  0.01345  0.678  -0.358
6.504e+09  0.1936  -0.1367  0.009747  -0.003451  0.006095  -0.003757  0.5042  -0.5729
6.505e+09  0.151  -0.1978  -0.0001702  -0.002877  0.008056  0.01195  0.2869  -0.7186
6.506e+09  0.0581  -0.2076  0.002505  -0.003276  -0.0084  -0.008203  0.003132  -0.7669
6.508e+09  -0.01929  -0.2287  0.0017  -0.0007404  0.009561  0.004069  -0.2516  -0.7295
6.509e+09  -0.1004  -0.2078  -0.0002211  0.005731  -0.005219  0.007922  -0.4687  -0.584
6.51e+09  -0.1626  -0.1605  -0.007573  -0.01522  0.008431  0.01013  -0.6502  -0.3875
6.511e+09  -0.1915  -0.1029  0.0061  0.0004101  -0.006911  -0.002935  -0.7513  -0.134
6.512e+09  -0.229  -0.02505  -0.003988  0.005336  -0.01146  0.0006152  -0.7403  0.1321
6.514e+09  -0.2297  0.04778  0.01103  3.803e-05  -0.01314  0.01678  -0.6484  0.3852
6.515e+09  -0.2041  0.1293  0.0004592  0.006341  -0.0001402  0.001712  -0.4853  0.5822
6.516e+09  -0.1507  0.1852  0.01431  -0.001287  -0.009034  -0.000796  -0.2443  0.7173
6.518e+09  -0.07715  0.236  0.01635  -0.005545  -0.00642  -0.007694  0.005139  0.7454
6.519e+09  0.01731  0.2372  -0.004732  -0.004401  0.008277  0.003744  0.2737  0.6862
6.52e+09  0.1034  0.2011  0.005527  -0.0001457  0.005743  0.01102  0.5012  0.5582
6.521e+09  0.1536  0.1685  0.004402  -0.004753  0.01008  0.01027  0.6738  0.349
6.522e+09  0.2084  0.1053  -0.003805  -0.002604  0.009571  0.00431  0.7319  0.1017
6.524e+09  0.2451  0.01201  -0.01311  -0.001535  0.001057  -0.006502  0.7157  -0.1658
6.525e+09  0.2463  -0.07715  -0.004757  0.001055  0.01439  0.001329  0.6066  -0.3953
6.526e+09  0.1901  -0.1441  -0.006835  0.0025  -0.01236  -0.001244  0.4312  -0.5932
6.528e+09  0.139  -0.1788  -0.0008754  0.003034  0.001122  0.01222  0.1887  -0.685
6.529e+09  0.06905  -0.2209  -0.003138  -0.002957  0.00523  -1.429e-05  -0.05029  -0.7047
6.53e+09  -0.01414  -0.2231  -0.005971  -0.003766  0.003585  0.008716  -0.2892  -0.6317
6.531e+09  -0.07942  -0.2043  -0.006997  0.004957  0.00297  0.004161  -0.4662  -0.4848
6.532e+09  -0.1689  -0.182  -0.00947  0.0004032  -0.01188  -0.002653  -0.5804  -0.2963
6.534e+09  -0.2013  -0.08138  -0.0002563  0.009937  0.0009239  0.006582  -0.6336  -0.08291
6.535e+09  -0.222  -0.03025  0.003187  -0.005004  -0.007098  -0.008308  -0.6188  0.1107
6.536e+09  -0.2245  0.03869  0.004179  0.002247  0.007074  0.006019  -0.5654  0.308
6.538e+09  -0.2013  0.1187  0.002609  0.008783  0.01198  0.009146  -0.4625  0.4777
6.539e+09  -0.1456  0.1828  -0.004102  -0.001334  -0.008509  0.02094  -0.2776  0.6063
6.54e+09  -0.06126  0.2242  0.0009544  -0.004264  -0.007481  -0.0005198  -0.05742  0.6883
