# Hz S RI R 50
6.25e+09  -0.1576  0.9548  -0.00972  0.001646  -0.003305  -0.0009019  0.1632  0.4804
6.251e+09  0.186  0.9534  0.009664  -0.006197  -0.01342  0.004189  0.3815  0.4026
6.252e+09  0.4893  0.8257  -0.003193  0.004829  -0.007229  -0.01523  0.5277  0.2432
6.254e+09  0.7585  0.6165  0.003997  0.01482  0.02451  -0.01385  0.616  0.01141
6.255e+09  0.8994  0.3215  -0.003775  0.006015  -0.01026  -0.005267  0.5827  -0.2206
6.256e+09  0.9556  -0.03062  -0.007514  -0.003789  0.002297  -0.003814  0.4755  -0.4528
6.258e+09  0.8823  -0.3364  -0.004321  0.005395  0.01885  0.0209  0.2702  -0.6095
6.259e+09  0.7303  -0.5966  0.003637  0.003041  0.01292  0.003682  0.03815  -0.6801
6.26e+09  0.4741  -0.8173  -0.0008235  -0.001372  -0.01283  -0.001047  -0.2235  -0.6498
6.261e+09  0.1748  -0.9439  0.003416  0.001468  0.009343  -0.009872  -0.4537  -0.5461
6.262e+09  -0.1497  -0.9291  -0.01052  0.0008157  -0.0161  0.005877  -0.6278  -0.3608
6.264e+09  -0.4643  -0.8341  -0.0005109  0.0004563  0.002252  -0.004565  -0.7107  -0.1017
6.265e+09  -0.7103  -0.6161  0.0063  -0.00935  -0.00839  0.001438  -0.7043  0.1605
6.266e+09  -0.8683  -0.3594  0.007179  0.005031  0.008562  -0.006477  -0.6132  0.4068
6.268e+09  -0.9218  -0.02396  -0.002049  0.0007796  -0.005119  -0.02213  -0.4259  0.5973
6.269e+09  -0.8966  0.2917  0.0102  -0.00776  0.019  0.01343  -0.1981  0.7135
6.27e+09  -0.7528  0.5683  0.004402  -0.001947  -0.01175  -0.006447  0.06671  0.738
6.271e+09  -0.5132  0.7906  0.003901  0.003201  0.005068  -0.01048  0.3233  0.6814
6.272e+09  -0.2036  0.9055  0.004911  -0.007618  0.01155  -0.002086  0.5476  0.5182
6.274e+09  0.1309  0.9202  -0.007735  0.004034  0.01112  0.001053  0.6959  0.3099
6.275e+09  0.4076  0.8489  -0.002601  0.002785  0.01595  0.0114  0.7657  0.03874
6.276e+09  0.6767  0.6457  -0.001646  -0.002236  -0.01309  0.01001  0.7399  -0.2276
6.278e+09  0.847  0.3877  -0.005989  0.007946  0.00863  0.003312  0.6205  -0.4669
6.279e+09  0.9254  0.05923  -0.004912  -0.000487  -0.0007566  0.006166  0.4139  -0.6484
6.28e+09  0.8735  -0.2346  0.003448  -0.006907  0.002733  0.02132  0.1652  -0.7538
6.281e+09  0.7327  -0.5355  0.002666  -0.006641  -0.00573  -0.01311  -0.1173  -0.7714
6.282e+09  0.532  -0.7621  -0.002677  -0.003151  -0.008852  -0.007376  -0.3865  -0.7025
6.284e+09  0.2406  -0.9024  0.001458  0.0001999  0.01184  0.008471  -0.5926  -0.5194
6.285e+09  -0.07641  -0.9215  -0.003056  -0.003278  0.0006598  0.01468  -0.7363  -0.2866
6.286e+09  -0.3976  -0.8277  0.005246  0.004935  -0.007671  0.006376  -0.7913  -0.01898
6.288e+09  -0.6634  -0.6604  -0.002063  -0.005301  -0.00352  -0.0113  -0.7635  0.2579
6.289e+09  -0.8421  -0.4016  0.0009945  0.00166  0.009022  -0.0181  -0.6309  0.5038
6.29e+09  -0.9271  -0.1069  0.01508  -0.007029  0.006588  -0.009432  -0.4226  0.6878
6.291e+09  -0.8836  0.2235  -0.0083  0.004832  -0.005179  -0.01003  -0.1484  0.7951
6.292e+09  -0.7793  0.5036  0.005284  0.0002995  -0.005626  0.01019  0.1249  0.8091
6.294e+09  -0.5492  0.7385  -0.001433  -0.006372  -0.01217  0.0121  0.3997  0.7155
6.295e+09  -0.2625  0.9065  -0.006481  0.001627  0.01239  0.0003872  0.6132  0.5343
6.296e+09  0.04879  0.9233  -0.00522  0.003249  -0.004539  -0.00427  0.7719  0.2955
6.298e+09  0.3776  0.8549  0.003733  0.009925  0.002801  0.01017  0.8353  0.006977
6.299e+09  0.6434  0.676  0.001844  9.297e-05  -0.008153  -0.01588  0.7889  -0.2757
6.3e+09  0.8269  0.4213  -0.007936  -0.002358  -0.004239  -0.01476  0.643  -0.5277
6.301e+09  0.9178  0.1115  0.005264  0.006294  0.005523  -0.01374  0.4369  -0.7275
6.302e+09  0.9141  -0.1999  0.003361  -0.002478  -0.003496  0.009679  0.1547  -0.8416
6.304e+09  0.7733  -0.5041  0.01088  -0.004534  -0.0004886  0.009008  -0.1483  -0.8336
6.305e+09  0.5609  -0.7268  -0.004486  -0.003271  0.001821  0.01965  -0.4216  -0.7423
6.306e+09  0.2757  -0.8911  -0.007713  -0.0005866  0.003155  -0.0009868  -0.6464  -0.5558
6.308e+09  -0.03119  -0.9155  -0.0005423  -0.001705  0.01113  -0.004835  -0.8085  -0.3058
6.309e+09  -0.3397  -0.8685  -0.002341  0.001642  -0.0188  -0.001293  -0.8545  -0.01009
6.31e+09  -0.6063  -0.6965  0.003476  0.003602  0.002059  0.007987  -0.8134  0.295
6.311e+09  -0.8394  -0.4445  0.001397  -0.001071  -0.02249  -0.003907  -0.6696  0.5574
6.312e+09  -0.92  -0.1334  0.005135  0.008043  -0.007044  0.000262  -0.4397  0.7597
6.314e+09  -0.9264  0.1967  -0.0004619  -0.003913  0.004496  -0.0013  -0.1474  0.8566
6.315e+09  -0.8043  0.4838  -0.006953  -0.009573  -0.00463  -0.009321  0.1448  0.8636
6.316e+09  -0.5885  0.7263  0.0001364  -0.002875  0.01288  0.002234  0.4297  0.7737
6.318e+09  -0.3057  0.8867  -0.005246  5.165e-05  0.01372  -0.002797  0.6669  0.5804
6.319e+09  0.00383  0.9545  -0.01363  0.006421  0.0009884  0.00959  0.8401  0.3182
6.32e+09  0.3435  0.8787  -0.003847  0.00734  0.001324  0.0004615  0.8905  0.01708
6.321e+09  0.6228  0.7091  0.001982  0.002432  0.01091  -0.001432  0.8409  -0.2928
6.322e+09  0.836  0.461  0.008695  0.001052  0.01218  0.004922  0.6932  -0.5705
6.324e+09  0.9531  0.1463  -0.005616  -0.003058  -0.009696  0.01409  0.4627  -0.7662
6.325e+09  0.9309  -0.1804  0.005339  -0.003807  -0.007689  -0.01284  0.169  -0.8772
6.326e+09  0.8015  -0.4943  -0.004181  -0.0007997  -0.006721  -0.0105  -0.1405  -0.8876
6.328e+09  0.6115  -0.7496  0.006172  -0.00543  0.007122  -0.001369  -0.4347  -0.7837
6.329e+09  0.315  -0.9095  -0.001019  -0.003906  -0.002121  -0.004018  -0.6895  -0.59
6.33e+09  -0.01665  -0.9441  0.003029  -0.01205  0.005916  0.01054  -0.8534  -0.3243
6.331e+09  -0.3372  -0.8825  0.007442  -0.002048  0.006003  0.00289  -0.9082  -0.02688
6.332e+09  -0.625  -0.7207  -0.005341  -0.0001981  0.007274  -0.008169  -0.8715  0.292
6.334e+09  -0.8316  -0.4744  0.01014  0.001625  -0.008565  8.786e-05  -0.7142  0.5606
6.335e+09  -0.9506  -0.1572  -0.01393  -0.004798  -0.005686  0.002353  -0.4848  0.7815
6.336e+09  -0.9448  0.1924  -0.004156  -0.01002  -0.002689  0.0119  -0.1873  0.9033
6.338e+09  -0.8453  0.5164  -0.001231  -0.001754  0.01174  -0.01302  0.1303  0.9188
6.339e+09  -0.6216  0.754  0.006185  0.00433  -0.004805  -0.004515  0.44  0.8223
6.34e+09  -0.3037  0.9237  -0.005989  -0.002466  -0.0001716  -0.002347  0.6924  0.6288
6.341e+09  0.02345  0.9564  0.003779  -0.007621  -0.0002402  -0.01791  0.8611  0.3536
6.342e+09  0.344  0.9072  -0.007119  -0.008332  -0.008605  0.002018  0.9328  0.03967
6.344e+09  0.6392  0.7322  -0.006446  -0.006346  -0.0006187  -0.00691  0.893  -0.2816
6.345e+09  0.8585  0.474  0.002232  0.01194  0.002652  -0.006511  0.7445  -0.5632
6.346e+09  0.9713  0.1598  0.00982  -0.007464  -0.009285  0.01818  0.5125  -0.7832
6.348e+09  0.9577  -0.1901  -0.007531  0.001305  0.001134  0.006314  0.2084  -0.9097
6.349e+09  0.8298  -0.5118  0.007998  -0.002244  0.01109  0.0003815  -0.1245  -0.9379
6.35e+09  0.6104  -0.7474  0.006156  0.001806  -0.00807  -0.0007156  -0.4148  -0.8387
6.351e+09  0.3249  -0.9198  -0.001804  0.0005486  0.004801  -0.001805  -0.6844  -0.6473
6.352e+09  -0.01494  -0.9768  0.007771  -0.008273  0.0006075  -0.005783  -0.8626  -0.3819
6.354e+09  -0.3454  -0.9058  0.001085  -0.005879  0.01046  -0.001768  -0.9384  -0.06759
6.355e+09  -0.645  -0.7467  -0.004192  0.001784  -0.0007142  0.009695  -0.9033  0.273
6.356e+09  -0.8556  -0.4648  -0.006678  -0.003066  0.0009936  -0.002347  -0.7712  0.5626
6.358e+09  -0.9598  -0.1423  0.01009  -0.0006247  0.004706  -0.02481  -0.5337  0.7772
6.359e+09  -0.9454  0.1911  -0.0005209  0.002975  0.0149  -0.01104  -0.2275  0.9214
6.36e+09  -0.824  0.5042  -0.0008551  -0.004734  -0.01206  -0.009436  0.09314  0.9511
6.361e+09  -0.6092  0.7777  -0.00621  -0.0008291  0.002405  0.00471  0.4022  0.8561
6.362e+09  -0.3  0.9232  -0.006284  -0.006291  0.002215  0.0001253  0.6733  0.6616
6.364e+09  0.01878  0.9752  -0.005439  -0.005565  -0.01018  0.006967  0.8603  0.3927
6.365e+09  0.351  0.9073  0.006066  0.004666  -0.000406  0.01962  0.9579  0.08583
6.366e+09  0.6554  0.7331  -0.003656  0.005731  -0.002587  0.006675  0.9295  -0.2581
6.368e+09  0.856  0.4733  0.008471  -0.002262  -0.01183  -0.0004518  0.7753  -0.5592
6.369e+09  0.9674  0.147  -0.0008444  0.002419  0.01269  -0.005585  0.5456  -0.7807
6.37e+09  0.9498  -0.195  -0.002454  -0.0007457  -0.009488  -0.00151  0.2263  -0.9103
6.371e+09  0.8314  -0.5075  -0.007042  0.01027  -0.005648  -0.01025  -0.08446  -0.9374
6.372e+09  0.6039  -0.7743  0.007976  -0.001709  -0.0005847  0.002274  -0.406  -0.8581
6.374e+09  0.3096  -0.9344  -0.006049  0.004912  0.00941  0.00144  -0.6731  -0.6764
6.375e+09  -0.0405  -0.9894  0.003367  -0.009474  0.01105  0.005672  -0.8518  -0.4032
6.376e+09  -0.3461  -0.9204  0.008572  -0.002512  0.003677  0.002518  -0.9398  -0.1032
6.378e+09  -0.6479  -0.729  0.003563  -0.004637  0.00356  -0.001339  -0.915  0.2414
6.379e+09  -0.8703  -0.4711  0.004388  -0.003514  -0.007074  0.01356  -0.7929  0.5165
6.38e+09  -0.9578  -0.1619  0.0006211  0.002497  0.003911  0.001565  -0.564  0.7701
6.381e+09  -0.978  0.1974  0.01219  0.00322  -0.008655  0.01719  -0.2491  0.9087
6.382e+09  -0.845  0.517  -0.0009323  0.007409  0.001943  -0.01693  0.06065  0.9387
6.384e+09  -0.6205  0.7753  0.009808  0.001107  -0.002325  0.004881  0.3662  0.8499
6.385e+09  -0.3158  0.9398  -0.008771  -0.003771  0.01147  0.01191  0.65  0.7007
6.386e+09  0.01325  0.9734  -0.001693  -0.0003643  -0.006383  -0.01791  0.8293  0.4239
6.388e+09  0.3747  0.9103  0.003391  0.01025  0.0006728  0.01021  0.9396  0.1153
6.389e+09  0.6315  0.7183  -0.009687  0.002354  -0.0009229  -0.00748  0.9146  -0.2097
6.39e+09  0.8467  0.4756  0.009785  0.0008383  0.0129  0.01151  0.7915  -0.4843
6.391e+09  0.9728  0.1483  0.0006739  0.01462  0.006693  -0.005616  0.5722  -0.7369
6.392e+09  0.9627  -0.1957  0.004839  0.001148  -0.003258  -0.004762  0.2908  -0.8789
6.394e+09  0.8381  -0.5029  -0.003158  0.005312  -0.01137  0.003625  -0.03814  -0.9287
6.395e+09  0.6236  -0.751  0.0008491  -0.002423  0.0001311  -0.01024  -0.3311  -0.85
6.396e+09  0.3096  -0.9248  0.01139  -0.01746  -0.006254  -0.006868  -0.6103  -0.6839
6.398e+09  -0.03028  -0.9645  -0.0002924  -0.002492  -0.01291  -0.003473  -0.803  -0.4289
6.399e+09  -0.3421  -0.9096  -0.003814  -0.009273  0.003859  0.009005  -0.9075  -0.1477
6.4e+09  -0.6437  -0.7294  0.004545  0.0135  -0.008249  -0.01296  -0.8998  0.1801
6.401e+09  -0.8538  -0.469  -0.00527  -0.01476  0.007565  0.001464  -0.809  0.4705
6.402e+09  -0.9468  -0.1596  0.0009527  -0.02504  -0.003565  0.002789  -0.5955  0.7055
6.404e+09  -0.9458  0.1947  0.0002908  -0.005122  -0.002893  0.01003  -0.3108  0.8652
6.405e+09  -0.8208  0.485  0.005745  0.00325  0.003076  0.007658  0.008392  0.9251
6.406e+09  -0.6163  0.7494  0.001373  0.01317  0.01019  0.005816  0.3054  0.8617
6.408e+09  -0.3226  0.9126  -0.0007762  0.004127  0.01049  -0.007961  0.5777  0.6939
6.409e+09  -0.003598  0.9605  -0.003965  -0.003333  0.001873  -0.00255  0.7842  0.4718
6.41e+09  0.3462  0.8973  0.006662  -0.01088  0.01725  0.01401  0.9012  0.1809
6.411e+09  0.6144  0.7413  -0.002295  -0.00483  0.001309  0.01978  0.9071  -0.1519
6.412e+09  0.8168  0.489  -0.0009352  0.004444  -0.01303  -0.000767  0.7933  -0.4358
6.414e+09  0.9405  0.1633  0.01638  -0.001655  -0.001338  0.00648  0.6024  -0.6797
6.415e+09  0.9478  -0.1545  0.01853  0.0022  0.005617  0.01536  0.3177  -0.8452
6.416e+09  0.8405  -0.4654  0.006464  -0.004929  0.007662  0.01542  0.03503  -0.9044
6.418e+09  0.6282  -0.7147  0.002676  0.00741  0.0003257  -0.007253  -0.286  -0.8427
6.419e+09  0.3378  -0.8954  0.007618  -0.001939  -0.004991  -0.001046  -0.5575  -0.6982
6.42e+09  0.0135  -0.9708  0.005187  -9.24e-05  0.006731  -0.02034  -0.7632  -0.4604
6.421e+09  -0.3084  -0.9111  -0.01329  -0.006695  -0.002076  -0.002044  -0.8742  -0.1916
6.422e+09  -0.5971  -0.7364  -0.01125  0.0005045  -0.006694  0.007379  -0.8771  0.1139
6.424e+09  -0.8116  -0.4948  -0.002869  -0.00387  -0.003661  0.007658  -0.7915  0.4149
6.425e+09  -0.9393  -0.1891  0.007658  0.00283  -0.01111  -0.0006455  -0.6155  0.629
6.426e+09  -0.948  0.1487  0.01204  0.00379  -0.003433  0.007664  -0.3424  0.7998
6.428e+09  -0.8225  0.4586  -0.0005656  0.009674  -0.003335  -0.0005485  -0.05837  0.8829
6.429e+09  -0.6277  0.6977  -0.005324  0.0006941  -0.01511  -0.008884  0.2514  0.8425
6.43e+09  -0.3472  0.8798  0.01049  0.01411  -0.003235  -0.02805  0.5138  0.7017
6.431e+09  -0.03146  0.9489  -0.01084  -0.005635  0.001134  -0.01331  0.7217  0.4878
6.432e+09  0.2878  0.903  0.01262  0.009896  0.001119  0.001364  0.8368  0.2058
6.434e+09  0.5659  0.7497  -0.001183  0.0161  0.001935  0.001379  0.8735  -0.08878
6.435e+09  0.7993  0.5145  0.006724  0.002124  0.0005289  0.01272  0.7704  -0.3758
6.436e+09  0.9342  0.2165  -0.008493  -0.005135  -0.002693  0.01  0.5978  -0.6237
6.438e+09  0.9368  -0.09666  -0.01554  -0.01018  0.003599  -0.001978  0.3457  -0.7798
6.439e+09  0.8259  -0.4458  -0.008922  0.005555  0.002077  0.01274  0.06254  -0.8522
6.44e+09  0.6542  -0.689  -0.006548  0.004223  0.00171  -0.0004215  -0.2344  -0.8228
6.441e+09  0.3906  -0.8587  0.009058  0.005951  0.005925  0.0009891  -0.4991  -0.6864
6.442e+09  0.06732  -0.9426  0.007675  -0.01359  -0.01071  -0.002823  -0.7109  -0.4749
6.444e+09  -0.2663  -0.8962  -0.002672  -0.0117  -0.004754  -0.01332  -0.8237  -0.2122
6.445e+09  -0.5455  -0.7524  -0.006435  -0.009125  -0.0154  -0.01451  -0.8422  0.07975
6.446e+09  -0.7727  -0.5277  0.006097  -0.0115  0.001119  -0.0003848  -0.7692  0.3575
6.448e+09  -0.8971  -0.2326  0.001374  -0.00348  -0.0009253  0.005605  -0.5828  0.5948
6.449e+09  -0.9258  0.08003  0.005193  -0.007675  0.01135  0.004528  -0.3423  0.7594
6.45e+09  -0.8495  0.3974  -0.0003335  -0.002052  0.0006252  -0.007507  -0.07967  0.8441
6.451e+09  -0.6614  0.6593  -0.008394  0.004255  0.006916  0.01884  0.2167  0.7953
6.452e+09  -0.3839  0.8436  0.009622  0.01213  0.005098  -0.01146  0.4943  0.6857
6.454e+09  -0.1099  0.9223  0.0009243  -0.0004995  0.005375  0.0008092  0.6847  0.4698
6.455e+09  0.2339  0.9167  -0.009061  0.00164  -0.007734  -0.005503  0.8036  0.2
6.456e+09  0.5249  0.769  -0.0006968  0.006633  -0.0052  0.006044  0.8334  -0.07781
6.458e+09  0.7604  0.5571  -0.007393  -2.357e-05  -0.006065  -0.01216  0.7596  -0.337
6.459e+09  0.8986  0.2721  -0.001042  -0.01713  0.01104  0.008459  0.5728  -0.5953
6.46e+09  0.9444  -0.06091  0.00485  -0.001119  -0.01169  -0.004459  0.3418  -0.7512
6.461e+09  0.8579  -0.3828  -0.006142  0.003869  -0.01406  0.009262  0.07235  -0.8067
6.462e+09  0.6777  -0.6418  0.02449  0.01164  0.001354  -0.006047  -0.2205  -0.7936
6.464e+09  0.4145  -0.8296  -6.533e-05  -0.0005966  -0.01789  -0.0129  -0.4665  -0.6623
6.465e+09  0.1032  -0.9385  -0.01147  -0.009242  0.005717  -0.01188  -0.6702  -0.4496
6.466e+09  -0.2103  -0.9074  0.00942  0.01052  0.0142  0.003447  -0.7827  -0.1915
6.468e+09  -0.5053  -0.798  0.01103  0.005185  0.003607  0.002887  -0.8078  0.07537
6.469e+09  -0.7407  -0.5585  0.01123  0.009845  -0.003931  0.006605  -0.7194  0.3456
6.47e+09  -0.8861  -0.3219  -0.006111  -0.01474  0.008115  0.0004094  -0.559  0.5726
6.471e+09  -0.9253  0.03282  0.006798  -0.001594  0.006144  0.008376  -0.3223  0.7121
6.472e+09  -0.8708  0.3277  -0.01091  -0.01451  -0.009672  0.006138  -0.0734  0.7856
6.474e+09  -0.6953  0.6146  7.314e-06  0.0004764  0.007949  -0.0005438  0.2166  0.7647
6.475e+09  -0.4613  0.8169  0.01669  0.0139  -0.002914  -0.002155  0.4587  0.6478
6.476e+09  -0.161  0.9163  -0.003451  -0.001889  -0.002422  0.0004699  0.6406  0.4465
6.478e+09  0.1527  0.9168  -0.006428  0.005512  -0.0142  0.009351  0.7652  0.2009
6.479e+09  0.4613  0.7924  -0.000301  0.006634  -0.004677  -0.002974  0.7927  -0.0726
6.48e+09  0.6982  0.5953  0.006816  -0.004604  -0.01808  -0.01693  0.7072  -0.3438
6.481e+09  0.8682  0.3346  -0.005413  0.0001989  0.006891  0.0008814  0.5423  -0.5644
6.482e+09  0.937  0.01609  0.002911  -0.00941  0.003358  0.00454  0.3323  -0.7276
6.484e+09  0.87  -0.292  -0.002028  -0.0004696  -0.00255  -0.000245  0.06754  -0.7767
6.485e+09  0.7162  -0.599  0.003719  0.002821  0.005759  0.001198  -0.2356  -0.7412
6.486e+09  0.4904  -0.7913  0.001446  -0.002751  0.001068  3.059e-05  -0.4601  -0.6332
6.488e+09  0.178  -0.9068  -0.0003931  0.0005258  0.002952  0.01157  -0.6514  -0.4368
6.489e+09  -0.1267  -0.9344  0.001133  -0.0004426  -0.004526  -5.772e-05  -0.7521  -0.1883
6.49e+09  -0.4237  -0.8216  -0.009537  -0.001068  -0.006623  0.007601  -0.7702  0.08408
6.491e+09  -0.6926  -0.6278  -0.0006255  0.002963  0.02166  -0.001665  -0.6887  0.3449
6.492e+09  -0.861  -0.3596  0.001873  0.0111  -0.006628  -0.01062  -0.528  0.5599
6.494e+09  -0.939  -0.07208  0.004565  -0.01541  0.003915  7.461e-05  -0.2999  0.7181
6.495e+09  -0.8939  0.2668  -0.007264  -0.0004019  -0.01435  0.001264  -0.05356  0.7634
6.496e+09  -0.7627  0.5386  0.004885  0.002555  -0.01235  0.01345  0.2275  0.7284
6.498e+09  -0.5225  0.7874  0.008425  0.0003128  -0.006965  -0.002151  0.4681  0.6117
6.499e+09  -0.2314  0.9035  0.0001457  0.005051  0.003653  -0.02063  0.6534  0.4221
6.5e+09  0.08602  0.9277  -0.01887  0.002344  0.002235  -0.006841  0.7619  0.1635
6.501e+09  0.4038  0.8396  0.01241  0.007177  0.0102  -0.001007  0.7685  -0.108
6.502e+09  0.6719  0.6875  -0.001376  -0.008936  0.0106  0.01009  0.6714  -0.3685
6.504e+09  0.8591  0.3948  -0.01025  -0.004244  0.01349  0.0007338  0.5001  -0.5633
6.505e+09  0.9348  0.07963  0.002782  0.002037  0.01739  -0.005778  0.2927  -0.7117
6.506e+09  0.8994  -0.2423  -0.0004079  -0.01074  -0.005687  -0.006814  0.01286  -0.7612
6.508e+09  0.7808  -0.5524  -0.01246  0.006956  0.008548  -0.00581  -0.2354  -0.7151
6.509e+09  0.5564  -0.7699  0.004509  -0.0007495  -0.006553  -0.0131  -0.4805  -0.5765
6.51e+09  0.2628  -0.9154  -0.01103  0.00885  -0.006584  0.00774  -0.6533  -0.3872
6.511e+09  -0.06583  -0.9584  0.007048  0.005605  -0.003546  -0.001769  -0.7497  -0.1429
6.512e+09  -0.3868  -0.883  0.004262  0.005262  0.009353  0.009834  -0.745  0.138
6.514e+09  -0.6491  -0.7041  0.008292  0.001845  0.004717  -0.006055  -0.6495  0.3738
6.515e+09  -0.8395  -0.4297  -0.006039  -0.002523  0.004337  0.00345  -0.4627  0.586
6.516e+09  -0.9601  -0.1102  -0.01286  0.002375  0.01804  0.009215  -0.2498  0.7094
6.518e+09  -0.9418  0.2197  -0.003939  -0.002769  0.007269  0.007732  0.01958  0.7584
6.519e+09  -0.81  0.5154  -0.006411  0.001832  -0.0009884  0.002107  0.2836  0.6936
6.52e+09  -0.5739  0.779  -0.0006312  0.007141  0.003412  -0.01798  0.5069  0.5537
6.521e+09  -0.2843  0.9391  0.001983  -7.161e-05  0.0006136  0.002284  0.6573  0.3526
6.522e+09  0.05655  0.9683  0.0002969  -0.005274  0.006198  0.01383  0.7394  0.08817
6.524e+09  0.3868  0.8981  0.0006431  -0.006723  -0.009015  0.002453  0.7154  -0.1751
6.525e+09  0.6619  0.7249  -0.001971  -0.0155  0.008024  0.0125  0.6219  -0.3915
6.526e+09  0.8617  0.4462  0.003927  0.009632  0.01305  0.0176  0.4364  -0.5764
6.528e+09  0.9873  0.1373  -0.004508  0.003755  0.007159  -0.006906  0.1932  -0.6834
6.529e+09  0.9736  -0.2018  0.003359  -0.004674  0.003613  -0.0131  -0.04346  -0.7066
6.53e+09  0.8449  -0.5128  -0.006078  -0.0008956  0.001309  0.02267  -0.2878  -0.6395
6.531e+09  0.6173  -0.7561  -0.006253  -0.0004996  0.006026  -0.01352  -0.4682  -0.4838
6.532e+09  0.3206  -0.964  -0.001047  -0.00574  0.01046  -0.02476  -0.5907  -0.2858
6.534e+09  -0.04136  -1.004  -0.0006912  0.002397  0.01956  -0.001914  -0.6386  -0.08371
6.535e+09  -0.3674  -0.9384  -0.0002692  -0.009722  -0.0137  0.003317  -0.6304  0.1152
6.536e+09  -0.6749  -0.7516  -8.236e-05  0.01028  0.008191  0.01422  -0.562  0.3035
6.538e+09  -0.8915  -0.477  -0.002874  -0.009681  -0.00584  0.008499  -0.4501  0.4819
6.539e+09  -0.9938  -0.136  0.003595  0.002894  -0.01541  -0.007128  -0.2791  0.6073
6.54e+09  -0.99  0.2166  -0.0006603  0.002643  0.009561  0.01964  -0.05709  0.6789
6.541e+09  -0.8525  0.537  -0.005313  -0.003259  0.007234  -0.009325  0.1949  0.6739
6.542e+09  -0.6164  0.7982  -0.004482  -0.00152  -0.02561  0.01281  0.4136  0.5623
