# Hz S RI R 50
6.25e+09  -0.7883  0.1423  -0.01213  -0.01167  -0.001727  0.006367  0.1692  0.4774
6.251e+09  -0.6912  0.4076  -0.003226  0.01828  -0.007351  0.005999  0.3677  0.4054
6.252e+09  -0.4956  0.6268  -0.0009265  -0.003802  0.01107  -0.0147  0.542  0.2427
6.254e+09  -0.2225  0.7695  -0.0004191  -0.009003  -0.01662  0.005995  0.6016  0.02836
6.255e+09  0.06486  0.791  0.009123  0.0006018  -0.005446  -0.006605  0.5932  -0.2353
6.256e+09  0.3326  0.7121  -0.008432  0.007208  -0.002664  -0.005881  0.4666  -0.4497
6.258e+09  0.5736  0.5398  -0.001788  0.01915  0.01489  0.005248  0.276  -0.604
6.259e+09  0.7227  0.295  0.009854  0.004503  -0.004234  -0.0009128  0.03647  -0.6769
6.26e+09  0.8033  0.01702  -0.0007427  -0.006786  -0.008167  0.007114  -0.2184  -0.6528
6.261e+09  0.7378  -0.2748  0.002841  -0.004602  -0.009068  -0.008854  -0.446  -0.542
6.262e+09  0.5797  -0.5232  0.004485  -0.003092  0.01026  0.004026  -0.6224  -0.3469
6.264e+09  0.3534  -0.7007  0.004139  -0.005522  0.02067  -0.00454  -0.7144  -0.09418
6.265e+09  0.1035  -0.7822  -0.002454  -0.01398  0.007965  0.01251  -0.7167  0.1497
6.266e+09  -0.2095  -0.7591  -0.003555  -0.007223  -0.00521  -0.01169  -0.6183  0.3916
6.268e+09  -0.4571  -0.6228  -0.008607  0.003314  -0.01329  0.007767  -0.4196  0.5921
6.269e+09  -0.655  -0.4141  -0.001485  -0.005672  -0.0007984  -0.00513  -0.2079  0.7214
6.27e+09  -0.7674  -0.182  0.003149  -0.005483  0.01936  -0.01169  0.07421  0.7319
6.271e+09  -0.7733  0.1265  -0.00334  0.003435  -0.004918  0.01837  0.3354  0.6748
6.272e+09  -0.6815  0.4111  -0.009893  -0.003575  -0.007524  -0.0005917  0.5385  0.5217
6.274e+09  -0.4951  0.6239  -0.0007874  -0.000878  0.02103  -0.001713  0.687  0.3052
6.275e+09  -0.218  0.7539  0.001082  0.01313  -0.001224  -0.005617  0.7655  0.0382
6.276e+09  0.07481  0.7978  0.003275  -0.001409  0.004702  0.001643  0.7294  -0.2168
6.278e+09  0.3557  0.7135  0.003492  -0.002826  -0.006605  -0.01189  0.6119  -0.4722
6.279e+09  0.5834  0.5208  0.009171  0.005102  0.006069  0.01127  0.4077  -0.6514
6.28e+09  0.7059  0.2792  -0.006561  0.006982  -0.01339  0.01147  0.1627  -0.7542
6.281e+09  0.7895  -0.0008019  0.002444  0.01042  0.01083  -0.001241  -0.1194  -0.7783
6.282e+09  0.7416  -0.2909  -0.007436  -0.001186  0.0087  -0.01022  -0.3704  -0.6927
6.284e+09  0.5848  -0.5398  -0.00158  -0.001554  0.0005186  -0.00483  -0.5812  -0.5321
6.285e+09  0.333  -0.7001  0.001893  -0.003038  -0.002722  0.005534  -0.7381  -0.2933
6.286e+09  0.03644  -0.7725  0.009557  0.004122  -0.009067  -0.0002934  -0.7934  -0.02504
6.288e+09  -0.2319  -0.7677  -0.006088  -0.002962  -0.0003306  0.002298  -0.7488  0.2581
6.289e+09  -0.494  -0.6116  0.009409  0.01048  -0.004579  -0.009772  -0.6262  0.5055
6.29e+09  -0.6819  -0.4007  0.002101  0.000426  -0.01559  0.006353  -0.4136  0.6974
6.291e+09  -0.7836  -0.1106  -0.01064  -0.003364  0.007723  0.0001694  -0.1558  0.8034
6.292e+09  -0.7692  0.1776  -0.006775  -0.01024  0.01282  -0.008516  0.126  0.8033
6.294e+09  -0.6494  0.4753  -0.003434  -0.006138  -0.006082  -0.001833  0.3953  0.7208
6.295e+09  -0.4298  0.6521  0.001784  -0.002865  0.0006361  0.00908  0.6197  0.5262
6.296e+09  -0.1669  0.7751  -0.004904  0.01053  0.005145  -0.001434  0.7746  0.2849
6.298e+09  0.1213  0.7838  -0.005159  0.007268  -0.018  -0.004742  0.824  0.005774
6.299e+09  0.4144  0.6827  -0.002278  -0.005598  -0.002847  0.01502  0.7871  -0.2856
6.3e+09  0.637  0.4762  0.005531  0.001169  -0.01559  -0.0002648  0.6315  -0.5199
6.301e+09  0.7632  0.2152  -0.001885  0.002532  0.004799  -0.01039  0.4252  -0.7219
6.302e+09  0.7759  -0.07788  0.002946  0.005552  -0.001466  0.004523  0.1541  -0.8175
6.304e+09  0.689  -0.3603  -0.006133  -0.00484  -0.01379  -0.0133  -0.1395  -0.8341
6.305e+09  0.5192  -0.5834  -0.001076  0.002013  0.006287  0.02464  -0.4257  -0.7417
6.306e+09  0.2521  -0.7346  -0.005777  -0.00698  -0.004796  0.0007123  -0.6464  -0.5474
6.308e+09  -0.04139  -0.7832  -0.001443  0.002233  0.01488  -0.006662  -0.8082  -0.3067
6.309e+09  -0.3399  -0.7384  -0.008219  -0.006744  0.005198  0.003623  -0.8653  -0.001588
6.31e+09  -0.5657  -0.5465  -0.004974  0.004076  -0.007257  -0.005765  -0.8022  0.2866
6.311e+09  -0.7288  -0.3093  1.869e-05  -0.002892  0.006406  0.009475  -0.6736  0.5607
6.312e+09  -0.801  -0.01258  -0.007037  0.00882  -0.01727  0.003398  -0.4355  0.757
6.314e+09  -0.7536  0.2924  -0.001932  0.007306  -0.003977  -0.004789  -0.1586  0.8599
6.315e+09  -0.5933  0.5555  -0.00221  -0.0003305  0.01519  -0.01096  0.1516  0.8651
6.316e+09  -0.3522  0.724  -0.001287  -0.009459  -0.002321  -0.009379  0.4325  0.77
6.318e+09  -0.05596  0.7992  -0.001815  0.0116  0.006053  0.01979  0.6752  0.567
6.319e+09  0.2551  0.7732  0.002488  -0.00205  -0.01018  0.001379  0.8186  0.3166
6.32e+09  0.5099  0.6399  -0.003234  0.006575  0.004286  0.005652  0.8878  0.006054
6.321e+09  0.7259  0.4025  0.003134  0.004823  0.0005245  0.005759  0.8454  -0.3005
6.322e+09  0.8224  0.09322  0.004311  0.003082  0.0005266  -0.008344  0.7002  -0.5594
6.324e+09  0.801  -0.2291  0.008164  0.005903  0.006143  -0.007085  0.4633  -0.7719
6.325e+09  0.6499  -0.4929  0.0003871  -0.0004487  -0.002768  0.006684  0.1706  -0.8947
6.326e+09  0.4257  -0.6978  -0.007176  -0.008766  0.004079  0.0102  -0.1358  -0.8865
6.328e+09  0.1312  -0.8052  -0.01294  -0.003711  -0.0008741  -0.006375  -0.434  -0.7867
6.329e+09  -0.1873  -0.8097  -0.001368  0.003707  -0.002524  0.003814  -0.6801  -0.5981
6.33e+09  -0.4789  -0.6753  -0.01333  0.009439  -0.006798  0.004529  -0.8339  -0.3257
6.331e+09  -0.6901  -0.4757  -0.001956  0.0123  -0.009486  -0.002576  -0.9089  -0.02338
6.332e+09  -0.8034  -0.1829  -0.00852  0.002754  -0.01096  0.008943  -0.8619  0.2891
6.334e+09  -0.8329  0.1388  -0.006757  -0.003276  0.002598  0.006989  -0.7158  0.5749
6.335e+09  -0.7058  0.4317  0.008435  -0.002727  0.001995  0.002497  -0.478  0.7742
6.336e+09  -0.5104  0.6683  -0.004904  -0.001266  -0.002242  0.00601  -0.1979  0.897
6.338e+09  -0.2215  0.8215  -0.00219  -0.007653  -0.008137  -0.002489  0.1256  0.9095
6.339e+09  0.09969  0.8533  -0.001596  -0.002786  0.00563  -0.02071  0.4212  0.82
6.34e+09  0.4112  0.7292  -0.007455  0.008619  -0.01431  -0.003714  0.6822  0.6265
6.341e+09  0.6469  0.541  -0.003042  0.001943  -0.007399  -0.004714  0.8599  0.351
6.342e+09  0.8087  0.2623  -0.008679  0.002009  0.01703  0.001202  0.9297  0.04438
6.344e+09  0.8491  -0.05374  0.01297  0.009898  -0.0008108  0.008435  0.8824  -0.277
6.345e+09  0.7615  -0.3623  0.0004635  -0.003996  -0.0007695  -0.01587  0.7377  -0.5604
6.346e+09  0.5864  -0.6297  -0.004736  0.0006743  -0.004973  0.005234  0.511  -0.7792
6.348e+09  0.3217  -0.8104  0.002712  -0.01852  0.007649  -0.004631  0.2068  -0.9123
6.349e+09  -0.01997  -0.8539  -0.005199  0.01002  0.01246  -0.009345  -0.117  -0.9227
6.35e+09  -0.3199  -0.8089  -5.083e-06  -0.00445  0.0129  -0.009521  -0.4218  -0.8235
6.351e+09  -0.5947  -0.6263  0.005394  0.003757  -0.0004562  -0.003639  -0.6937  -0.6483
6.352e+09  -0.7752  -0.3507  -0.009224  -0.007614  -0.0008057  -0.008102  -0.8592  -0.3707
6.354e+09  -0.8725  -0.06296  0.004119  -0.000368  0.0003692  0.005706  -0.9454  -0.04495
6.355e+09  -0.8357  0.264  -0.006344  -0.005096  0.0001298  0.01662  -0.902  0.2671
6.356e+09  -0.6642  0.5559  0.006464  0.0006758  0.00796  -0.01128  -0.7653  0.5572
6.358e+09  -0.4109  0.7658  0.005714  -7.073e-05  -0.009666  0.006861  -0.5229  0.7816
6.359e+09  -0.1204  0.8682  0.006004  0.008961  -0.004091  0.002872  -0.2308  0.9182
6.36e+09  0.2194  0.8408  0.001195  0.003642  -0.009591  0.01034  0.09269  0.9475
6.361e+09  0.518  0.7011  -0.004146  0.0008196  -0.005626  -0.00303  0.4155  0.8475
6.362e+09  0.7228  0.4626  0.006619  0.007061  -0.01499  0.006156  0.6737  0.659
6.364e+09  0.8461  0.16  -0.002553  0.004736  0.003778  -0.01671  0.8745  0.4016
6.365e+09  0.8511  -0.1616  0.01328  0.003106  0.003498  -0.01682  0.94  0.06863
6.366e+09  0.7416  -0.4509  -0.01203  -0.008757  0.006534  -0.01098  0.9292  -0.2613
6.368e+09  0.5258  -0.6926  0.005596  -0.01043  -0.0117  -0.009141  0.7795  -0.548
6.369e+09  0.2293  -0.8371  0.007235  0.001504  0.001371  -0.008649  0.5385  -0.7789
6.37e+09  -0.09145  -0.8594  -0.004131  -0.008766  0.02153  0.001377  0.25  -0.9351
6.371e+09  -0.4063  -0.7803  -0.003174  -0.01033  -0.00519  -0.001853  -0.08914  -0.9471
6.372e+09  -0.651  -0.5737  -0.006844  -3.286e-05  0.009239  0.008813  -0.3895  -0.8717
6.374e+09  -0.8115  -0.2993  -0.001384  -0.006939  0.001428  -0.00386  -0.6807  -0.6689
6.375e+09  -0.8615  0.01763  -0.007474  0.008379  -0.008512  0.001885  -0.8672  -0.417
6.376e+09  -0.8151  0.3378  -0.0005596  0.006162  -0.01589  0.001124  -0.9467  -0.09229
6.378e+09  -0.6408  0.6106  0.00356  -0.005343  -0.01136  0.002717  -0.9165  0.2425
6.379e+09  -0.3736  0.7921  -0.006029  -0.003272  -0.004315  -0.007066  -0.7895  0.5351
6.38e+09  -0.06042  0.8816  -0.009213  0.004382  0.005216  0.001739  -0.547  0.773
6.381e+09  0.2602  0.8437  -0.00318  -0.008143  -0.008889  0.004596  -0.2626  0.8984
6.382e+09  0.5421  0.6917  -0.01042  0.005111  0.001244  0.002244  0.07167  0.9411
6.384e+09  0.7535  0.4537  -0.005335  0.01041  -0.007734  -0.004906  0.3733  0.8569
6.385e+09  0.8736  0.1375  -0.007343  0.005738  0.001736  -0.002973  0.6529  0.6925
6.386e+09  0.8489  -0.1821  -0.01914  -0.01208  -0.007427  0.006847  0.8311  0.4109
6.388e+09  0.7342  -0.4815  -0.0007117  0.001565  -0.003414  0.01727  0.9312  0.1172
6.389e+09  0.5149  -0.7118  0.001587  0.003032  -0.006547  -0.007192  0.9196  -0.2006
6.39e+09  0.215  -0.8466  0.0002798  0.02113  -0.0004681  -0.005268  0.7663  -0.4912
6.391e+09  -0.1181  -0.8746  0.0003413  0.01315  0.02306  0.007063  0.5759  -0.7418
6.392e+09  -0.406  -0.7664  0.007819  -0.008843  0.009619  0.003513  0.2746  -0.8979
6.394e+09  -0.6653  -0.5703  -0.003522  -0.001117  -0.002585  0.008837  -0.04833  -0.9265
6.395e+09  -0.8296  -0.3022  -0.001235  0.004301  -0.003997  -0.008816  -0.3548  -0.8578
6.396e+09  -0.8813  0.01556  0.004077  0.00372  -0.01108  0.01548  -0.6044  -0.7007
6.398e+09  -0.8291  0.3352  0.008279  -0.01128  0.0134  -0.001015  -0.8119  -0.4318
6.399e+09  -0.6503  0.6197  0.003022  0.0002055  -0.006669  0.001634  -0.9074  -0.1493
6.4e+09  -0.368  0.7927  0.002022  -8.189e-05  -0.01141  -0.01332  -0.9046  0.1764
6.401e+09  -0.05081  0.8851  -0.00127  0.008799  -0.0007716  -0.0005027  -0.8117  0.4744
6.402e+09  0.2625  0.8376  0.00952  -0.007432  0.0002214  0.003833  -0.5888  0.7257
6.404e+09  0.5471  0.6888  0.0008296  0.002943  0.01001  0.00624  -0.2954  0.8863
6.405e+09  0.7765  0.4205  0.01138  0.002767  -0.006366  -0.01666  0.01723  0.9145
6.406e+09  0.8683  0.133  0.002204  -0.007299  0.008917  -0.004827  0.2963  0.876
6.408e+09  0.8591  -0.1997  -0.005787  0.002992  -0.002905  -0.001017  0.5927  0.6956
6.409e+09  0.7491  -0.475  0.01249  -0.01413  0.00224  -0.01534  0.7818  0.4579
6.41e+09  0.5198  -0.7206  0.01313  0.01285  -0.003502  0.005723  0.8997  0.1759
6.411e+09  0.2179  -0.8689  0.001552  0.004613  -0.01613  -0.01319  0.9074  -0.1429
6.412e+09  -0.129  -0.8719  -0.004545  0.001592  -0.007459  0.001049  0.787  -0.4554
6.414e+09  -0.4256  -0.7871  0.00457  0.001178  -0.001521  0.005865  0.5916  -0.6722
6.415e+09  -0.6772  -0.5575  0.01002  0.00208  -0.008757  0.004684  0.3357  -0.8444
6.416e+09  -0.8424  -0.2853  0.004247  -0.00922  0.0001456  0.01154  0.02624  -0.9205
6.418e+09  -0.8929  0.06852  -0.002501  -0.0008446  0.001437  0.002767  -0.2787  -0.8628
6.419e+09  -0.8109  0.3565  -0.002824  -0.0004489  -0.0174  -0.001556  -0.5462  -0.6907
6.42e+09  -0.6313  0.64  -0.001926  -0.009612  -0.005266  0.00816  -0.7507  -0.4684
6.421e+09  -0.3483  0.8225  0.01131  0.005494  -0.0003805  -0.008596  -0.8807  -0.1864
6.422e+09  -0.0356  0.882  0.01524  -0.005264  -0.005663  0.005002  -0.8839  0.1204
6.424e+09  0.3107  0.8404  -0.0009864  -0.004185  0.006242  -0.006849  -0.7911  0.4041
6.425e+09  0.5836  0.6734  0.0043  0.002636  0.01409  -0.004731  -0.5958  0.648
6.426e+09  0.7829  0.4087  0.005008  -0.006618  -0.002467  0.002705  -0.3408  0.8173
6.428e+09  0.8983  0.08489  -0.005512  -0.003587  -0.0006033  -0.000729  -0.05208  0.896
6.429e+09  0.8642  -0.2226  0.01093  0.01076  0.01774  0.009679  0.244  0.8281
6.43e+09  0.7024  -0.5573  -0.002795  0.001646  0.004482  0.004887  0.5198  0.7076
6.431e+09  0.4698  -0.7795  0.01693  0.004177  0.01058  -0.01161  0.7282  0.4685
6.432e+09  0.1451  -0.9  0.003511  0.002714  -0.002456  -0.000496  0.8453  0.2269
6.434e+09  -0.1811  -0.8792  0.003675  -0.01338  -0.003635  -0.002342  0.8682  -0.1064
6.435e+09  -0.4971  -0.7491  0.003352  -0.01248  0.01803  -0.006551  0.7889  -0.3755
6.436e+09  -0.7547  -0.5341  -0.002551  -0.01045  0.01175  -0.0001062  0.596  -0.6093
6.438e+09  -0.8942  -0.1963  -0.002295  0.0003636  0.01651  -0.00983  0.3526  -0.7928
6.439e+09  -0.8807  0.1406  -0.01409  -0.004266  -0.006553  -0.002623  0.05413  -0.8611
6.44e+09  -0.7833  0.4699  0.005776  0.008454  -0.005557  0.003507  -0.2326  -0.8324
6.441e+09  -0.5572  0.7154  0.0083  0.003997  -0.002404  0.0036  -0.5041  -0.7002
6.442e+09  -0.2273  0.8513  -0.003742  -0.005872  0.005368  -0.0004849  -0.7005  -0.4828
6.444e+09  0.1016  0.8855  -0.0009711  -0.008428  3.149e-05  0.01109  -0.8317  -0.2055
6.445e+09  0.4265  0.7814  -0.008381  -0.003476  0.001039  -0.01142  -0.8477  0.0811
6.446e+09  0.7068  0.5964  -0.007488  0.02018  0.003029  -0.003607  -0.7682  0.3666
6.448e+09  0.8727  0.3017  -0.0004967  -0.003867  -0.003587  0.01804  -0.589  0.6002
6.449e+09  0.8952  -0.04278  0.002192  0.003696  -0.001208  -0.001224  -0.3494  0.756
6.45e+09  0.8022  -0.3809  0.001763  0.002756  -0.009958  0.00422  -0.05453  0.824
6.451e+09  0.6107  -0.668  -0.004293  0.016  -0.0002003  -0.01763  0.2189  0.8044
6.452e+09  0.3329  -0.8375  -0.0006029  0.004387  0.009456  0.004717  0.4863  0.68
6.454e+09  -0.002615  -0.8943  0.002787  -0.004962  0.01277  0.0096  0.6882  0.4555
6.455e+09  -0.3269  -0.8239  -0.01284  0.00295  0.007897  -0.01079  0.7981  0.2095
6.456e+09  -0.6069  -0.6258  0.001005  -0.001569  -0.002097  -0.0006733  0.808  -0.08027
6.458e+09  -0.791  -0.374  0.01578  -0.002162  -0.009168  -0.01215  0.7494  -0.3502
6.459e+09  -0.8613  -0.01799  0.0004453  0.01162  0.01559  -0.008314  0.577  -0.5891
6.46e+09  -0.8128  0.2781  0.01414  -0.01912  -0.0004939  -0.002788  0.3408  -0.7585
6.461e+09  -0.6556  0.5581  0.008824  0.0003531  0.0004776  -0.002335  0.06472  -0.8106
6.462e+09  -0.3787  0.772  0.009694  0.0005174  -0.02058  0.01836  -0.2148  -0.7898
6.464e+09  -0.07592  0.8777  -0.001052  0.003085  -0.008703  -0.003474  -0.4834  -0.6556
6.465e+09  0.2387  0.819  -0.004312  0.001268  -0.007694  0.01224  -0.6751  -0.4371
6.466e+09  0.5422  0.6644  -0.01804  -0.002822  0.003566  -0.007386  -0.7838  -0.2063
6.468e+09  0.7293  0.4127  -0.003528  -0.01194  0.001643  -0.0001997  -0.7978  0.06922
6.469e+09  0.8281  0.1339  -0.006798  -0.01252  0.002377  0.001581  -0.7179  0.343
6.47e+09  0.8116  -0.2128  0.003918  0.00162  0.0002238  -0.001945  -0.5702  0.5706
6.471e+09  0.6737  -0.4873  -0.005268  -0.002772  0.001702  -0.009676  -0.3339  0.7286
6.472e+09  0.4327  -0.7032  0.006508  0.00622  -0.001841  0.01103  -0.06259  0.7844
6.474e+09  0.1502  -0.8193  0.005023  -0.005324  -0.006045  -0.006689  0.2099  0.7475
6.475e+09  -0.1476  -0.7865  0.0004323  -0.00296  -0.01161  0.009851  0.4597  0.6454
6.476e+09  -0.4314  -0.6898  0.003311  -0.006707  -0.003955  -0.002265  0.6588  0.437
6.478e+09  -0.6409  -0.4637  0.0007338  -0.002703  -0.00902  -0.01224  0.7696  0.1949
6.479e+09  -0.7862  -0.2084  -0.01068  0.01097  -0.00201  -0.004764  0.7836  -0.08336
6.48e+09  -0.7812  0.1054  -0.005042  -0.0006819  0.003041  0.0006118  0.695  -0.3411
6.481e+09  -0.6905  0.3824  0.003177  0.002386  -0.01442  0.002531  0.5429  -0.5598
6.482e+09  -0.4999  0.6261  -0.009566  0.005672  0.002967  -0.002235  0.317  -0.7203
6.484e+09  -0.234  0.7509  0.009698  -0.02131  0.0009641  -0.001117  0.0669  -0.7883
6.485e+09  0.05071  0.7949  -0.001144  0.005595  -0.011  0.005261  -0.2286  -0.7578
6.486e+09  0.3259  0.6952  0.019  0.004805  -0.005539  0.008964  -0.4575  -0.6341
6.488e+09  0.578  0.5215  -0.008907  -0.01071  -0.008134  0.001919  -0.6404  -0.4223
6.489e+09  0.7217  0.2783  -0.01427  0.001404  0.0005328  0.0017  -0.7552  -0.1723
6.49e+09  0.7734  -0.01368  -0.003047  0.002354  0.007751  0.005317  -0.7727  0.09217
6.491e+09  0.6996  -0.2888  -0.006534  0.003102  -0.01673  -0.001571  -0.6782  0.3486
6.492e+09  0.5554  -0.5205  0.008274  -0.005554  -0.00867  -0.01056  -0.5358  0.574
6.494e+09  0.3309  -0.679  -0.0007638  0.006463  -0.001251  -0.01267  -0.295  0.7019
6.495e+09  0.04291  -0.7547  0.009137  -0.005184  0.01576  -0.01501  -0.03607  0.7685
6.496e+09  -0.2311  -0.7069  0.01959  -0.002104  0.001708  0.003416  0.2145  0.7367
6.498e+09  -0.4611  -0.5905  -0.006389  -0.0009624  0.01128  -0.004613  0.4673  0.6127
6.499e+09  -0.6391  -0.3691  0.01497  0.001885  -0.003225  -0.002508  0.6496  0.4182
6.5e+09  -0.7486  -0.1044  0.001593  -0.001555  -0.02195  -0.01009  0.7574  0.1673
6.501e+09  -0.7226  0.1764  -0.003387  -0.008799  0.004436  0.01683  0.7661  -0.1089
6.502e+09  -0.6017  0.4289  0.001705  0.003019  0.01064  -0.003128  0.6695  -0.3629
6.504e+09  -0.43  0.5933  0.01443  0.0009167  -0.003439  -0.006394  0.5076  -0.5762
6.505e+09  -0.178  0.7092  0.02387  -0.0035  -0.0007786  0.007273  0.2847  -0.7171
6.506e+09  0.09584  0.7257  -0.004051  -0.0007814  -0.005929  0.01317  0.01463  -0.7564
6.508e+09  0.3558  0.6421  -0.001422  0.002274  0.005356  -0.01888  -0.2396  -0.7104
6.509e+09  0.5631  0.4592  -0.004836  0.004746  -0.01453  0.00066  -0.475  -0.5859
6.51e+09  0.6911  0.2179  -0.0006537  0.001843  0.01624  0.008534  -0.6631  -0.3896
6.511e+09  0.7266  -0.04541  -0.003672  -0.01216  0.003067  -0.0007827  -0.7348  -0.1401
6.512e+09  0.6701  -0.2959  -0.001461  -0.002895  -0.0006782  0.01632  -0.7548  0.1265
6.514e+09  0.5109  -0.5157  -0.005382  0.0005122  -0.001457  0.006249  -0.6421  0.378
6.515e+09  0.2864  -0.6592  -0.002169  -0.007567  -0.01231  0.006288  -0.4793  0.5835
6.516e+09  0.03891  -0.7392  0.01037  -0.004071  0.003827  0.007895  -0.2321  0.7195
6.518e+09  -0.2263  -0.6841  -0.0002335  -0.01258  0.000727  0.003062  0.01781  0.753
6.519e+09  -0.4828  -0.5766  -0.004489  -7.581e-05  0.01456  0.01726  0.2767  0.7033
6.52e+09  -0.6386  -0.3465  0.002432  0.004473  -0.006675  0.008989  0.4982  0.5468
6.521e+09  -0.7194  -0.09419  0.0135  0.007217  -0.008717  -0.01845  0.6502  0.343
6.522e+09  -0.7138  0.1784  0.007927  0.004035  0.006132  0.008015  0.7421  0.0942
6.524e+09  -0.6097  0.4205  -0.002235  -0.002304  -0.01176  0.009008  0.7125  -0.1667
6.525e+09  -0.4134  0.6101  0.001007  -0.008394  -0.00759  0.001317  0.6198  -0.3928
6.526e+09  -0.1792  0.6892  -0.003961  -0.006498  -0.01206  0.009811  0.4282  -0.5818
6.528e+09  0.1102  0.7481  0.004358  -0.001284  -0.006766  0.003472  0.202  -0.6902
6.529e+09  0.3723  0.6471  -0.007757  -0.00411  -0.01034  -0.0005304  -0.05019  -0.701
6.53e+09  0.5735  0.4732  -0.004064  0.004697  0.001082  0.0003194  -0.2826  -0.6244
6.531e+09  0.7049  0.2369  -0.003977  -0.01171  0.001986  -0.0085  -0.4699  -0.4809
6.532e+09  0.7354  -0.03778  -0.001623  0.009905  -0.006806  0.01016  -0.5914  -0.3064
6.534e+09  0.6921  -0.3219  -0.002056  0.0001733  0.0113  0.0004467  -0.6412  -0.08922
6.535e+09  0.5134  -0.527  0.003526  0.005757  0.01038  0.002992  -0.6264  0.1212
6.536e+09  0.3116  -0.6917  0.009478  0.007248  0.0007529  0.009501  -0.5596  0.3082
6.538e+09  0.02135  -0.7639  0.002978  0.0006499  0.00881  -0.0054  -0.4478  0.4815
6.539e+09  -0.2554  -0.7162  0.002851  -0.01085  -0.005179  0.009132  -0.2761  0.611
6.54e+09  -0.4844  -0.5743  0.000349  -0.0114  -0.006964  0.01446  -0.04306  0.6773
6.541e+09  -0.6596  -0.3713  -0.01289  -0.006741  -0.008911  -0.009878  0.1849  0.6702
