# Hz S RI R 50
6.25e+09  -0.6644  -0.4886  -0.008183  -0.0128  -0.005688  0.0005605  0.1622  0.4848
6.251e+09  -0.7837  -0.2249  -0.007718  -0.008873  0.005699  -0.005079  0.3677  0.4123
6.252e+09  -0.8173  0.06246  0.003972  -0.006748  0.00354  0.01076  0.537  0.2312
6.254e+09  -0.7607  0.3148  -0.01046  -0.002116  0.004946  0.02155  0.6146  0.02039
6.255e+09  -0.5847  0.5537  0.002451  0.0003971  0.01117  0.01457  0.5876  -0.2263
6.256e+09  -0.3656  0.7403  0.001152  -0.002326  -0.009374  0.0004878  0.4779  -0.4446
6.258e+09  -0.07821  0.7984  -0.004571  0.001039  0.01213  0.003148  0.2706  -0.6097
6.259e+09  0.1649  0.7905  0.003775  0.00393  -0.01603  0.004597  0.03097  -0.6858
6.26e+09  0.4396  0.6727  0.001646  -0.005063  0.01697  -0.006161  -0.2175  -0.6575
6.261e+09  0.65  0.4869  -0.006189  -0.01431  -0.006511  0.004695  -0.4476  -0.5431
6.262e+09  0.7776  0.2401  0.006483  0.003251  0.003394  -0.002084  -0.6133  -0.3526
6.264e+09  0.8082  -0.03402  0.006837  -0.007679  0.00423  -0.006609  -0.7111  -0.1055
6.265e+09  0.7431  -0.3067  -0.0009414  -9.763e-05  0.005119  -0.01391  -0.6967  0.1541
6.266e+09  0.5812  -0.5479  0.001199  0.001486  -0.0003541  -0.005579  -0.6124  0.3953
6.268e+09  0.3679  -0.7166  0.0003004  0.002013  0.003117  0.001159  -0.4439  0.5954
6.269e+09  0.09952  -0.7981  0.004986  0.004604  -0.004773  -0.0115  -0.2004  0.7218
6.27e+09  -0.1522  -0.7791  0.004683  -0.001  0.003195  -0.001658  0.06458  0.7439
6.271e+09  -0.4456  -0.6815  0.004895  -0.003869  -0.007786  0.005546  0.33  0.672
6.272e+09  -0.6379  -0.4785  -0.004571  0.003545  -0.001843  0.0109  0.5387  0.5222
6.274e+09  -0.7751  -0.2519  -0.007814  0.00618  -0.004349  0.00316  0.6956  0.3078
6.275e+09  -0.8053  0.01128  0.003538  0.003938  -0.0042  0.01223  0.7618  0.03257
6.276e+09  -0.749  0.301  0.0044  0.002015  0.0123  -0.01581  0.7351  -0.2306
6.278e+09  -0.5997  0.5216  -0.0008796  0.000719  0.0009806  -0.003641  0.6034  -0.4774
6.279e+09  -0.3928  0.7108  0.001899  -0.0009733  -0.003185  0.003185  0.4152  -0.6441
6.28e+09  -0.1407  0.8055  -0.00035  0.00452  0.008411  0.003121  0.1667  -0.7668
6.281e+09  0.1654  0.7947  -0.007395  0.01039  -0.01067  -0.001958  -0.1178  -0.7731
6.282e+09  0.4095  0.6964  0.005365  0.002358  -0.008646  -0.0004687  -0.3699  -0.6907
6.284e+09  0.6324  0.512  -0.01062  -0.005079  0.001645  -0.01002  -0.5895  -0.5292
6.285e+09  0.7807  0.2761  0.0009358  0.008646  -0.009541  0.007517  -0.7272  -0.2892
6.286e+09  0.8356  -0.003441  -0.000987  0.00599  -0.02781  -0.005381  -0.7935  -0.01405
6.288e+09  0.7571  -0.2843  -0.009076  0.005665  -0.01071  -0.001656  -0.7545  0.2515
6.289e+09  0.6207  -0.5246  -0.004264  -0.0006653  0.01961  0.01976  -0.6275  0.5077
6.29e+09  0.4151  -0.6887  0.003264  -0.01023  0.01202  0.007128  -0.4174  0.6879
6.291e+09  0.1327  -0.801  0.01189  0.008304  0.01849  0.005358  -0.1476  0.7903
6.292e+09  -0.1393  -0.802  0.005673  0.004884  -0.004133  0.003818  0.1255  0.8115
6.294e+09  -0.396  -0.7203  -0.001087  -0.004672  0.006557  -0.008401  0.4014  0.7134
6.295e+09  -0.6206  -0.5368  0.0027  0.008768  0.002585  -0.003665  0.6105  0.5427
6.296e+09  -0.7702  -0.2838  -0.0003929  0.002211  0.001371  0.003565  0.7795  0.2814
6.298e+09  -0.8165  0.01108  0.001909  0.006569  -0.007258  0.003102  0.8352  0.006328
6.299e+09  -0.7674  0.2779  -0.004139  0.00705  -0.004663  0.001042  0.7805  -0.2791
6.3e+09  -0.6259  0.518  0.0007312  -0.002609  0.003273  -0.001973  0.6497  -0.5341
6.301e+09  -0.4064  0.7111  0.001963  -0.00325  -0.01017  0.005783  0.4251  -0.7234
6.302e+09  -0.144  0.816  0.003488  0.001453  0.0005634  0.0118  0.1533  -0.8355
6.304e+09  0.1376  0.8179  0.001579  0.00296  0.01289  0.008952  -0.1457  -0.8436
6.305e+09  0.4056  0.7308  -0.009807  -0.01134  -0.002444  -9.392e-05  -0.4157  -0.7415
6.306e+09  0.617  0.5526  -0.005072  0.003795  -0.01779  0.001355  -0.6487  -0.5515
6.308e+09  0.7652  0.2824  0.00121  -0.002179  -0.003662  0.005541  -0.8046  -0.2952
6.309e+09  0.8206  0.00802  0.008051  -0.008501  -0.02035  0.005007  -0.8675  -0.004672
6.31e+09  0.7782  -0.2696  0.003519  0.003825  0.003217  0.003287  -0.8178  0.293
6.311e+09  0.6646  -0.5152  -0.0009658  0.002869  0.01266  -0.001529  -0.6704  0.5479
6.312e+09  0.4397  -0.722  -0.01021  -0.0005034  0.01505  0.002801  -0.4358  0.7565
6.314e+09  0.1707  -0.8167  0.006561  0.002703  -0.003314  0.008396  -0.1652  0.8637
6.315e+09  -0.1238  -0.8418  0.003852  0.004599  -0.003813  -0.01434  0.1483  0.8674
6.316e+09  -0.4048  -0.727  -0.005346  0.000641  0.004054  -0.008171  0.4359  0.7654
6.318e+09  -0.6335  -0.5398  -0.007502  -0.0003433  -0.01099  0.003532  0.6775  0.5661
6.319e+09  -0.7704  -0.3035  0.0029  0.005167  0.005715  0.001028  0.8358  0.3178
6.32e+09  -0.841  -0.004697  0.008542  0.007316  0.003219  0.003652  0.8926  0.01082
6.321e+09  -0.8007  0.2633  -0.002843  -0.005228  -0.003075  -0.003408  0.8362  -0.2827
6.322e+09  -0.6516  0.5135  -0.003909  -0.005639  -0.01484  0.009752  0.6941  -0.5716
6.324e+09  -0.4391  0.7082  0.002573  0.0001278  -0.008909  -0.005821  0.4561  -0.7684
6.325e+09  -0.1593  0.8315  0.001553  0.00695  0.007329  0.0035  0.1693  -0.8845
6.326e+09  0.1287  0.8256  0.00386  -0.01368  0.002183  -0.006829  -0.1375  -0.8859
6.328e+09  0.3978  0.7372  0.005475  -0.001285  0.01511  0.006587  -0.4484  -0.7919
6.329e+09  0.6296  0.5552  -0.00366  0.002791  0.01872  0.01157  -0.6791  -0.6015
6.33e+09  0.7794  0.3059  -0.002888  0.006252  0.001579  0.001129  -0.8553  -0.3296
6.331e+09  0.8461  0.02024  -0.00133  -0.002907  -0.007691  0.005277  -0.9203  -0.02353
6.332e+09  0.7908  -0.2679  -0.008378  0.003297  0.002712  0.005135  -0.8575  0.2852
6.334e+09  0.6567  -0.5305  -0.001458  -0.003517  0.003955  -0.001662  -0.7193  0.5715
6.335e+09  0.4357  -0.7345  -0.001145  0.002219  -0.00216  0.001385  -0.4743  0.777
6.336e+09  0.1674  -0.8294  -0.001633  -0.00105  -0.01829  0.002415  -0.1796  0.8979
6.338e+09  -0.1353  -0.8352  8.131e-05  0.005902  -0.01701  0.007487  0.1226  0.9113
6.339e+09  -0.4123  -0.757  0.004979  -0.005534  -0.003148  -0.007836  0.4321  0.8148
6.34e+09  -0.6399  -0.5451  0.01155  -0.001366  -0.01399  0.01335  0.6844  0.6198
6.341e+09  -0.7919  -0.3043  0.008831  7.949e-05  -0.0021  0.0007889  0.8628  0.3599
6.342e+09  -0.8462  -0.01621  -0.007833  0.0007636  0.007663  0.008914  0.9198  0.04627
6.344e+09  -0.7873  0.2848  -0.01121  -0.001277  -0.008182  0.01415  0.8865  -0.2881
6.345e+09  -0.6459  0.5687  0.002824  -0.003338  -0.006545  -0.002629  0.7369  -0.5625
6.346e+09  -0.4368  0.7354  0.001562  0.00813  0.004107  -0.005935  0.5004  -0.7926
6.348e+09  -0.1324  0.8456  0.002446  -0.0021  0.006287  -0.0009496  0.1994  -0.9133
6.349e+09  0.168  0.8302  -0.008103  -0.003917  0.009821  0.00702  -0.1115  -0.9379
6.35e+09  0.4136  0.736  -0.005214  -0.01342  -0.005853  0.008868  -0.4133  -0.84
6.351e+09  0.6545  0.5484  -0.007579  -0.0006327  0.01521  -0.007624  -0.6822  -0.6363
6.352e+09  0.8038  0.2857  0.003123  -0.008695  0.007191  0.005009  -0.8633  -0.3892
6.354e+09  0.8652  -0.004837  -0.009742  -0.003575  0.0104  -0.005469  -0.9448  -0.05991
6.355e+09  0.8116  -0.3087  -0.003658  -0.00404  -0.0006857  -0.007663  -0.916  0.2731
6.356e+09  0.6633  -0.5649  0.01211  -0.005735  0.00214  -0.005812  -0.7452  0.5555
6.358e+09  0.4052  -0.7575  0.002114  0.003358  0.01171  0.006332  -0.5319  0.7813
6.359e+09  0.1178  -0.8526  0.007653  0.003109  0.004723  0.01761  -0.2248  0.9277
6.36e+09  -0.1759  -0.8355  -0.002651  0.001343  -0.004059  -0.002494  0.1111  0.9435
6.361e+09  -0.451  -0.7409  0.0002979  0.0045  -0.003274  -0.01038  0.4013  0.8597
6.362e+09  -0.6818  -0.5268  -0.005076  0.004802  0.002127  0.001117  0.6788  0.6625
6.364e+09  -0.8163  -0.2575  0.01082  -0.000432  0.002893  -0.001326  0.8672  0.3953
6.365e+09  -0.8602  0.04145  0.01072  0.002998  -0.005413  0.0009996  0.9568  0.07754
6.366e+09  -0.7861  0.3505  0.0007568  0.01302  0.006295  0.01349  0.9152  -0.2511
6.368e+09  -0.6372  0.5936  -0.0103  -0.008305  0.00155  0.003013  0.7842  -0.5544
6.369e+09  -0.3849  0.7812  -0.01161  0.0101  0.0005172  -0.009552  0.5314  -0.782
6.37e+09  -0.08782  0.8603  0.0005368  0.00276  0.006164  -0.007539  0.2547  -0.9193
6.371e+09  0.2133  0.8286  -0.005147  -0.009068  -0.005222  0.009238  -0.08068  -0.9419
6.372e+09  0.4866  0.71  0.008072  0.008567  -0.00583  0.002854  -0.3982  -0.8658
6.374e+09  0.7084  0.5014  -0.01216  0.006373  -0.01239  0.006988  -0.6814  -0.6661
6.375e+09  0.8334  0.229  0.004661  0.01366  -0.006701  0.008463  -0.8524  -0.4111
6.376e+09  0.8578  -0.07103  -0.005572  0.002406  0.001572  0.01514  -0.939  -0.1001
6.378e+09  0.778  -0.3466  -0.003411  -0.0003205  0.006133  -0.002244  -0.9249  0.2405
6.379e+09  0.6234  -0.6255  0.003491  0.009294  0.003676  -0.008223  -0.7875  0.533
6.38e+09  0.3423  -0.8152  0.002142  0.00586  0.006071  -0.008666  -0.5524  0.7772
6.381e+09  0.08473  -0.8666  -0.006738  0.01028  0.01902  0.001088  -0.2524  0.9087
6.382e+09  -0.2584  -0.8482  0.005946  0.01546  -0.03164  0.007517  0.06043  0.9351
6.384e+09  -0.5208  -0.7023  0.007923  -0.001197  0.005659  -0.002929  0.3741  0.8631
6.385e+09  -0.7357  -0.4663  -0.002276  -0.0009792  -0.009678  0.00382  0.6524  0.6775
6.386e+09  -0.8487  -0.2026  -0.005461  0.00654  0.004461  0.004144  0.8391  0.4288
6.388e+09  -0.8839  0.1028  -0.0141  -0.01232  -0.00256  -0.001477  0.9247  0.107
6.389e+09  -0.7786  0.421  0.002403  0.01415  -0.0111  -0.006045  0.9082  -0.2166
6.39e+09  -0.5875  0.6578  -0.003147  -0.001131  0.008713  -0.002285  0.7859  -0.5046
6.391e+09  -0.3235  0.8051  0.006839  0.003853  0.0065  0.01745  0.5675  -0.733
6.392e+09  -0.01756  0.8748  0.01823  0.006304  -0.01002  -0.01036  0.2806  -0.8817
6.394e+09  0.2989  0.8122  0.000197  0.0117  -0.0008755  -0.007221  -0.03499  -0.9358
6.395e+09  0.5652  0.6758  -0.002171  0.00334  0.008072  -0.01608  -0.3526  -0.8617
6.396e+09  0.7658  0.4447  -0.007888  0.0008783  -0.008089  0.002067  -0.6129  -0.691
6.398e+09  0.8807  0.1468  -0.001492  0.002488  0.007669  0.005736  -0.817  -0.4457
6.399e+09  0.8715  -0.1771  0.003747  -0.006396  -0.002396  -0.00159  -0.9052  -0.142
6.4e+09  0.7568  -0.4441  -0.003298  0.001022  0.005229  -0.009562  -0.9182  0.175
6.401e+09  0.5478  -0.6623  0.003096  0.00637  -0.0008595  -0.007163  -0.8066  0.4805
6.402e+09  0.2772  -0.8184  -0.006626  -0.004262  -0.001306  -5.323e-05  -0.5825  0.7184
6.404e+09  -0.0228  -0.8773  -0.006041  0.009595  0.001697  0.0005615  -0.3074  0.8631
6.405e+09  -0.3283  -0.8074  -0.0007672  -0.007822  -0.008514  0.006837  -0.0006661  0.9221
6.406e+09  -0.5862  -0.6402  -0.008861  3.309e-05  -0.01044  -0.008416  0.3253  0.8534
6.408e+09  -0.7712  -0.402  0.007434  -0.002603  -0.002726  -0.00687  0.5919  0.7045
6.409e+09  -0.8673  -0.1013  -0.009509  -0.01267  -0.01168  0.01254  0.782  0.4638
6.41e+09  -0.8579  0.2112  -0.01223  0.01404  0.001262  -0.004204  0.8938  0.1689
6.411e+09  -0.7112  0.5029  0.0178  0.005415  -0.006366  0.002395  0.9004  -0.1299
6.412e+09  -0.4999  0.7214  -0.008511  -0.004735  -0.00324  0.00692  0.7918  -0.4408
6.414e+09  -0.2228  0.8374  -0.001532  0.005661  -0.01484  0.0047  0.5869  -0.6797
6.415e+09  0.0975  0.8769  0.004017  -0.007652  -0.01738  -0.0111  0.3397  -0.8552
6.416e+09  0.3855  0.7885  0.01736  0.006353  0.002667  0.004876  0.01911  -0.9194
6.418e+09  0.6493  0.6014  0.005414  -0.01934  0.004269  0.01681  -0.2704  -0.8667
6.419e+09  0.8026  0.3367  0.004159  -0.01317  -0.009103  0.01505  -0.5417  -0.7106
6.42e+09  0.8705  0.04365  -0.009517  0.002179  0.002995  0.002639  -0.753  -0.4853
6.421e+09  0.8155  -0.2711  -0.01368  0.009546  -0.00257  -0.01062  -0.8741  -0.204
6.422e+09  0.691  -0.5332  -0.007977  -0.001154  -0.004207  -0.002899  -0.8929  0.1361
6.424e+09  0.4563  -0.7491  -0.01084  -0.004894  -0.008561  0.002605  -0.8087  0.4006
6.425e+09  0.1694  -0.8518  0.00629  -0.004807  -1.765e-05  -0.005894  -0.5917  0.65
6.426e+09  -0.1321  -0.8505  -0.004151  0.00674  0.0035  -0.004816  -0.3469  0.8217
6.428e+09  -0.4398  -0.7546  0.002664  0.003738  0.004849  0.01141  -0.05003  0.8799
6.429e+09  -0.6569  -0.5631  -0.01062  -0.001502  0.0002029  -0.005077  0.2646  0.8455
6.43e+09  -0.8044  -0.2958  0.0004496  -0.01051  0.006892  -0.004186  0.5179  0.7058
6.431e+09  -0.8523  0.01047  0.00392  0.003931  -0.002262  -0.009025  0.7389  0.4798
6.432e+09  -0.8282  0.3122  -0.01139  -0.007939  -0.0001109  0.01625  0.8318  0.2085
6.434e+09  -0.6511  0.5714  0.01197  -0.003579  0.008747  0.00551  0.8806  -0.09169
6.435e+09  -0.41  0.7628  -0.00621  -0.007605  -0.008111  0.004097  0.7748  -0.37
6.436e+09  -0.1057  0.8487  0.005673  0.0005931  0.002305  -0.0007453  0.5944  -0.6092
6.438e+09  0.1955  0.8273  -0.01019  0.009709  -0.01976  0.01043  0.3472  -0.7794
6.439e+09  0.4679  0.7149  0.002942  -0.001289  0.004125  -0.003458  0.06975  -0.8506
6.44e+09  0.6893  0.5067  0.002523  0.00653  -0.02009  0.006234  -0.2407  -0.8227
6.441e+09  0.8168  0.2493  0.01081  -0.01774  0.0002532  0.01188  -0.4997  -0.6829
6.442e+09  0.8542  -0.06499  -0.007553  0.01045  -0.0003525  0.0163  -0.7147  -0.4771
6.444e+09  0.7746  -0.3497  -0.007163  -0.0007964  0.005047  -0.003122  -0.8315  -0.2148
6.445e+09  0.5927  -0.5877  -0.0006947  -0.008253  -0.01948  0.008208  -0.8518  0.08265
6.446e+09  0.3618  -0.7747  0.009569  -0.007403  0.000595  -0.01691  -0.7574  0.3553
6.448e+09  0.06807  -0.8393  0.01204  0.004455  0.003469  0.006047  -0.5924  0.6032
6.449e+09  -0.2142  -0.8002  0.003863  0.02032  -0.009103  -0.001705  -0.3551  0.7751
6.45e+09  -0.4891  -0.6902  0.00165  -0.002167  0.0007054  0.0139  -0.07219  0.8277
6.451e+09  -0.6965  -0.4678  0.003556  0.006016  -0.01541  -0.004985  0.2172  0.8125
6.452e+09  -0.8055  -0.1984  -0.00102  0.006091  0.00683  0.002457  0.4881  0.6803
6.454e+09  -0.8334  0.0772  0.007523  -0.002634  0.007663  -0.005704  0.6878  0.4839
6.455e+09  -0.747  0.3808  -0.008198  -0.01206  -0.009136  -0.009404  0.8044  0.2139
6.456e+09  -0.545  0.6093  -0.00363  0.01071  -0.002987  0.003365  0.8148  -0.07694
6.458e+09  -0.3199  0.7634  -0.007007  0.004276  0.009653  0.001186  0.7446  -0.3464
6.459e+09  -0.03627  0.8201  -0.0172  0.003554  -0.01192  0.01372  0.5696  -0.5832
6.46e+09  0.2493  0.7852  0.01203  0.008578  0.00386  0.009765  0.3454  -0.7419
6.461e+09  0.5144  0.6597  -0.0005217  0.01074  -0.01584  -0.001477  0.06482  -0.8264
6.462e+09  0.6884  0.4257  -0.003225  0.004429  0.01269  -0.006335  -0.2091  -0.7917
6.464e+09  0.7907  0.1774  0.009611  0.002429  -0.01046  -0.001404  -0.4638  -0.6644
6.465e+09  0.8038  -0.1173  0.009524  -0.02266  -0.01074  -0.0007459  -0.6839  -0.4604
6.466e+09  0.7012  -0.3809  -0.001349  0.002013  -0.00271  0.00871  -0.7919  -0.1978
6.468e+09  0.5351  -0.6249  0.0127  0.01165  0.005568  -0.009529  -0.7995  0.08877
6.469e+09  0.2992  -0.7622  -0.01079  0.01384  0.01006  -0.001017  -0.7241  0.3551
6.47e+09  0.0198  -0.8136  0.01061  0.007629  -0.008801  0.01072  -0.5518  0.5666
6.471e+09  -0.2587  -0.7808  0.009355  0.008344  -0.002658  0.006567  -0.3123  0.7367
6.472e+09  -0.4995  -0.6257  -0.00994  0.0002025  0.01239  -0.005824  -0.06814  0.7975
6.474e+09  -0.6903  -0.3897  0.004654  0.01142  0.004258  0.005103  0.213  0.7665
6.475e+09  -0.7977  -0.1584  0.001585  0.005368  -0.002586  -0.004783  0.4623  0.652
6.476e+09  -0.7949  0.1224  0.01009  0.008335  -0.01005  -0.009999  0.6601  0.446
6.478e+09  -0.6948  0.3895  0.01112  0.003022  0.002309  0.008213  0.7652  0.1905
6.479e+09  -0.5176  0.6131  0.006833  -0.01228  0.01071  0.004422  0.7791  -0.08533
6.48e+09  -0.2813  0.7566  0.0003144  0.003611  0.002755  -0.004134  0.7163  -0.3518
6.481e+09  -0.01837  0.7914  0.006157  0.01212  0.008953  -0.01413  0.5524  -0.5697
6.482e+09  0.2729  0.7564  -0.01225  0.01079  -0.01641  0.0155  0.325  -0.7198
6.484e+09  0.5065  0.6023  0.0115  -0.007487  -0.005598  -0.0007042  0.05321  -0.7811
6.485e+09  0.6867  0.3897  -0.001166  0.004353  0.01105  0.006963  -0.2088  -0.7609
6.486e+09  0.7827  0.1342  0.006646  0.004395  -0.004901  0.001403  -0.4638  -0.6307
6.488e+09  0.7615  -0.1454  0.006363  0.00645  0.005872  0.02346  -0.66  -0.43
6.489e+09  0.6856  -0.4014  -0.01299  0.005083  -0.001362  -0.008186  -0.7417  -0.1898
6.49e+09  0.4992  -0.6034  -0.00989  0.01542  -0.01722  0.004555  -0.7746  0.102
6.491e+09  0.2469  -0.7212  -0.004924  -0.001156  -0.003977  0.01028  -0.6881  0.3465
6.492e+09  -0.01011  -0.7868  -0.004866  -0.00609  0.009328  0.006349  -0.5299  0.5616
6.494e+09  -0.2858  -0.7292  0.0008157  -0.004778  -0.004076  0.005242  -0.3219  0.7118
6.495e+09  -0.5128  -0.6027  0.003424  -0.004696  0.01384  0.00358  -0.03843  0.7703
6.496e+09  -0.6801  -0.3862  0.008672  -0.001609  -0.003213  0.01222  0.2141  0.728
6.498e+09  -0.7691  -0.1395  -0.002199  -0.009993  -0.003445  -0.009837  0.4609  0.6138
6.499e+09  -0.7892  0.1244  0.0009192  0.00175  0.002805  0.001741  0.6518  0.4083
6.5e+09  -0.6614  0.4117  -0.007572  -0.01339  -0.007706  -0.002976  0.7501  0.1723
6.501e+09  -0.5024  0.6107  0.007115  0.008328  -0.01339  -0.005829  0.7767  -0.09466
6.502e+09  -0.2598  0.7303  0.003314  -0.005672  0.01114  -0.003201  0.6728  -0.3567
6.504e+09  -0.003285  0.7928  0.0006858  -0.001081  0.002812  0.00106  0.507  -0.5727
6.505e+09  0.2897  0.7042  -0.005293  -0.009494  0.02163  -0.002868  0.274  -0.7179
6.506e+09  0.4894  0.5903  -0.004992  -0.00334  -0.0176  -0.001584  0.005092  -0.7568
6.508e+09  0.6734  0.3929  -0.005104  0.004962  0.0002239  -0.005182  -0.2425  -0.7303
6.509e+09  0.7829  0.1325  0.004225  -0.006728  -0.00772  -0.01017  -0.4723  -0.6033
6.51e+09  0.7722  -0.1485  -0.002642  -0.01281  0.007737  0.00306  -0.6625  -0.3802
6.511e+09  0.6687  -0.3819  0.001934  -0.001694  0.0007611  -0.02093  -0.7466  -0.1389
6.512e+09  0.4963  -0.5887  -0.003482  0.006111  0.009837  0.003881  -0.7339  0.138
6.514e+09  0.2536  -0.743  -0.005991  -0.005684  -0.0006383  -0.0009783  -0.653  0.3729
6.515e+09  -0.02283  -0.773  -0.009079  -0.006024  -0.01176  0.004656  -0.4646  0.583
6.516e+09  -0.2695  -0.7395  0.00911  0.001285  0.003927  -0.001662  -0.2574  0.7071
6.518e+09  -0.5017  -0.603  0.003648  0.0056  0.01595  0.002488  0.0212  0.7452
6.519e+09  -0.6847  -0.3808  0.004068  -0.008482  0.001132  -0.001928  0.2689  0.6917
6.52e+09  -0.7873  -0.1429  0.0009214  -0.009465  -0.00324  0.002369  0.5037  0.5576
6.521e+09  -0.7697  0.1203  0.001553  0.001552  -0.006055  0.001092  0.6439  0.3485
6.522e+09  -0.683  0.3851  -0.002938  -0.008343  -0.01953  0.00375  0.7304  0.08829
6.524e+09  -0.5088  0.6093  -0.01519  0.00858  0.002628  0.003504  0.7118  -0.1651
6.525e+09  -0.2741  0.7228  -0.01273  0.01952  0.01193  0.003056  0.6064  -0.3919
6.526e+09  -0.009053  0.7906  -0.006636  -0.007261  0.006506  0.001398  0.434  -0.5854
6.528e+09  0.2607  0.7439  -0.006442  -0.003336  0.003054  0.01449  0.2043  -0.6869
6.529e+09  0.5056  0.6233  0.005951  -0.01051  0.003744  0.006195  -0.04705  -0.7005
6.53e+09  0.6921  0.3943  -0.00492  0.002411  -0.01123  0.01164  -0.2996  -0.6341
6.531e+09  0.7838  0.1284  0.0137  -0.004948  -0.002664  -0.003973  -0.48  -0.4805
6.532e+09  0.789  -0.1376  0.01003  0.008367  -0.007697  0.007789  -0.6002  -0.2957
6.534e+09  0.7118  -0.3991  0.01221  0.009377  -0.006565  -0.01217  -0.639  -0.08053
6.535e+09  0.5115  -0.6341  -0.002498  0.0009073  -0.01796  0.01076  -0.6237  0.1157
6.536e+09  0.2642  -0.7518  -0.005235  -0.01018  -0.002299  -0.01627  -0.5648  0.3091
6.538e+09  -0.007429  -0.8146  0.0006792  -0.01199  0.006528  -0.001394  -0.4487  0.4823
6.539e+09  -0.2767  -0.7562  -0.006888  -0.007399  0.004111  -0.005175  -0.2682  0.6096
6.54e+09  -0.5136  -0.6066  0.003087  0.0001719  -0.006875  -0.00998  -0.04665  0.6838
6.541e+09  -0.7239  -0.3761  0.000314  -0.0006711  -0.01254  -0.004271  0.1921  0.675
6.542e+09  -0.7858  -0.1188  -0.008764  -0.008205  0.003961  0.005173  0.4163  0.5734
