# Hz S RI R 50
6.25e+09  0.06464  -0.03659  -0.01277  0.001019  -0.004536  -0.007727  0.1655  0.4888
6.251e+09  0.0283  -0.05715  -0.006235  -0.002151  -0.01703  0.005019  0.3628  0.4015
6.252e+09  0.02202  -0.07473  -0.008368  0.005847  0.01394  0.01215  0.5304  0.2474
6.254e+09  -0.009497  -0.06847  -0.005511  0.0023  0.002203  0.001103  0.6119  0.0144
6.255e+09  -0.02888  -0.06092  -0.00773  0.0104  0.01213  -0.01386  0.5957  -0.2272
6.256e+09  -0.05991  -0.05286  0.006088  -0.008944  0.0125  0.001356  0.4786  -0.4531
6.258e+09  -0.0648  -0.03662  0.007745  0.01144  0.01884  -0.009557  0.2853  -0.6112
6.259e+09  -0.07087  0.009242  0.005221  0.001922  0.000673  0.003101  0.03897  -0.6823
6.26e+09  -0.06249  0.03373  -0.007563  0.00224  -0.001621  -0.01049  -0.2176  -0.6582
6.261e+09  -0.04856  0.03425  -0.0008785  -0.004981  -0.01377  -0.02489  -0.4507  -0.5396
6.262e+09  -0.03042  0.08167  0.01226  -0.0003121  -0.01439  -0.01171  -0.6244  -0.3538
6.264e+09  0.00188  0.08484  0.0009073  -0.001173  0.01188  0.01862  -0.7114  -0.1032
6.265e+09  0.01276  0.07934  -0.001163  -0.01191  -0.0002079  -0.017  -0.7101  0.1437
6.266e+09  0.03177  0.06229  0.005904  0.000314  0.01214  0.005951  -0.6182  0.3911
6.268e+09  0.05832  0.0526  -0.004652  0.002365  -0.00272  -0.01719  -0.4353  0.5899
6.269e+09  0.0638  0.03425  -0.000186  0.0001912  -0.008782  -0.005213  -0.1988  0.7038
6.27e+09  0.08043  -0.001955  -0.007097  -0.002887  -0.00973  -0.009738  0.0703  0.7427
6.271e+09  0.0871  -0.04934  -0.001143  0.004937  0.0007802  0.009882  0.3132  0.6749
6.272e+09  0.06418  -0.04524  0.003618  0.001818  0.0214  -0.007787  0.5539  0.5193
6.274e+09  0.03284  -0.05757  -0.008253  0.002508  0.01104  -0.01868  0.699  0.2952
6.275e+09  0.006328  -0.08631  0.004639  -0.005069  0.01721  -0.003585  0.7669  0.03696
6.276e+09  -0.02776  -0.06713  0.001011  0.001598  0.00445  0.02158  0.7355  -0.2246
6.278e+09  -0.04033  -0.05756  0.00797  0.009159  0.00777  0.003501  0.6124  -0.469
6.279e+09  -0.05056  -0.05341  -0.01507  -0.001694  -0.01197  -0.01421  0.424  -0.6593
6.28e+09  -0.0742  -0.01664  -0.003035  -0.003347  0.009625  0.01226  0.168  -0.767
6.281e+09  -0.09647  -0.002427  0.0004478  0.000785  -0.0002356  -0.01272  -0.1127  -0.767
6.282e+09  -0.076  0.03126  0.005141  -0.005234  -0.004352  0.003925  -0.3683  -0.6874
6.284e+09  -0.06459  0.06742  -0.009878  0.01028  -0.01247  -0.01452  -0.5964  -0.5236
6.285e+09  -0.04783  0.09262  -0.004707  0.002338  0.01927  -0.008809  -0.7477  -0.2929
6.286e+09  -0.01754  0.09215  -0.005756  0.01032  -0.004035  -0.006778  -0.7954  -0.01996
6.288e+09  0.01741  0.08257  0.006025  -0.00525  0.001079  0.01405  -0.7541  0.2471
6.289e+09  0.04915  0.07461  -0.005402  0.002325  0.003632  0.002564  -0.6255  0.5043
6.29e+09  0.07286  0.0517  -0.002918  0.005121  0.02059  0.0005387  -0.4117  0.6961
6.291e+09  0.07257  0.01307  0.005999  -0.006818  0.01171  -0.008005  -0.1559  0.8002
6.292e+09  0.09409  -0.00585  0.0107  -0.005398  -0.008768  0.004891  0.1354  0.8003
6.294e+09  0.07276  -0.02088  -0.0006121  -0.001282  0.01264  0.01292  0.4004  0.7139
6.295e+09  0.0655  -0.06171  -0.0008581  0.008927  -0.003307  0.007654  0.635  0.5387
6.296e+09  0.0376  -0.07726  -0.006673  0.00257  0.00393  0.01024  0.7762  0.2921
6.298e+09  0.009555  -0.08243  0.006485  -0.001447  0.01467  -0.01165  0.831  0.006768
6.299e+09  -0.03244  -0.09527  0.01266  -0.01178  0.0006999  0.003857  0.7955  -0.2878
6.3e+09  -0.0533  -0.07308  0.001947  -0.002556  0.0004039  0.009358  0.6368  -0.5328
6.301e+09  -0.06781  -0.0475  0.006639  -0.006919  0.001429  -0.005111  0.4287  -0.7269
6.302e+09  -0.1041  -0.01196  -0.0007282  0.0009433  0.0108  0.001037  0.156  -0.8213
6.304e+09  -0.09192  0.01617  -0.003937  -0.0001767  0.002747  0.004925  -0.1385  -0.836
6.305e+09  -0.09171  0.02858  0.009216  0.005548  0.01647  -0.0104  -0.4148  -0.7484
6.306e+09  -0.06071  0.05814  0.006972  0.001914  0.01731  -0.001677  -0.6552  -0.5582
6.308e+09  -0.05151  0.07147  -0.007595  0.004307  0.005209  -0.007635  -0.8077  -0.3053
6.309e+09  -0.02059  0.0898  -0.004188  0.002117  -0.001734  0.006524  -0.8579  -0.01012
6.31e+09  0.01822  0.08474  -0.005379  -0.009354  -0.005794  0.004657  -0.8178  0.2894
6.311e+09  0.04912  0.105  -0.001189  -0.0003839  0.01159  -0.002198  -0.6714  0.5631
6.312e+09  0.07406  0.05034  -0.00262  0.004357  0.008356  -0.01205  -0.4466  0.7477
6.314e+09  0.08574  0.03224  0.007017  0.001175  -0.00726  -0.005612  -0.1484  0.856
6.315e+09  0.1072  -0.002967  -0.001527  0.01115  -0.001828  0.005284  0.1455  0.8751
6.316e+09  0.09579  -0.03125  0.01032  -0.01117  -0.002383  -5.906e-05  0.4346  0.7634
6.318e+09  0.07012  -0.07379  0.003576  -0.0008218  -0.003855  -0.006711  0.6743  0.5719
6.319e+09  0.05469  -0.08034  -0.01035  -0.002706  -0.00282  0.00278  0.8314  0.3122
6.32e+09  0.01902  -0.1095  -0.003243  0.002948  0.008351  -0.007506  0.8961  0.01588
6.321e+09  -0.01265  -0.09322  0.002522  0.004428  -0.01272  -0.007803  0.8462  -0.284
6.322e+09  -0.05509  -0.09876  -0.01265  -0.004422  0.002182  -0.004083  0.6946  -0.563
6.324e+09  -0.09114  -0.07502  -0.004146  0.0005014  -0.01211  0.006133  0.4648  -0.7629
6.325e+09  -0.08657  -0.03924  -0.009545  0.002909  0.007814  0.004869  0.1758  -0.8856
6.326e+09  -0.09548  -0.01753  -0.0001815  -0.004675  -0.008307  0.00681  -0.1408  -0.8926
6.328e+09  -0.1091  0.02655  -0.006259  -0.004687  0.01388  0.00375  -0.431  -0.7967
6.329e+09  -0.09248  0.06017  -0.0001631  0.004012  0.009557  0.02178  -0.6755  -0.6014
6.33e+09  -0.07605  0.08762  -0.001974  0.001149  0.007474  -0.013  -0.8396  -0.3221
6.331e+09  -0.03723  0.1045  0.005411  0.008623  -0.01691  -0.003087  -0.9105  -0.01987
6.332e+09  0.005389  0.1079  -0.0001377  0.0007147  -0.000833  -0.0122  -0.8519  0.2865
6.334e+09  0.03529  0.1025  -0.006976  0.004024  -0.01416  0.01419  -0.722  0.5642
6.335e+09  0.07699  0.08098  -0.008901  0.009646  -0.007795  -0.0004979  -0.4856  0.7749
6.336e+09  0.08881  0.05863  -0.005896  0.003707  -8.27e-05  0.007954  -0.1983  0.9036
6.338e+09  0.1066  0.014  0.003057  0.001535  -0.01188  -0.01001  0.1269  0.9155
6.339e+09  0.1006  -0.02422  -0.008168  0.0008327  0.01239  0.01112  0.4349  0.8291
6.34e+09  0.1049  -0.04587  0.002272  -0.006375  -0.02241  -0.003991  0.6851  0.6219
6.341e+09  0.07221  -0.08271  0.001163  0.002143  0.002595  -0.002372  0.8559  0.3611
6.342e+09  0.04152  -0.09586  0.002796  -0.0002016  0.003244  -0.001176  0.938  0.04315
6.344e+09  0.008014  -0.1094  -0.009833  -0.005279  -0.002679  0.002772  0.8922  -0.2826
6.345e+09  -0.0379  -0.1045  -0.001054  0.00196  -0.003218  -0.004853  0.7405  -0.5771
6.346e+09  -0.07232  -0.1007  0.008279  0.003159  -0.002969  -0.007751  0.5086  -0.794
6.348e+09  -0.09523  -0.05925  -0.001823  0.002122  -0.0007083  0.004543  0.2145  -0.9238
6.349e+09  -0.1136  -0.03221  -0.004448  -0.008475  -0.004569  -0.0101  -0.1197  -0.9283
6.35e+09  -0.1142  0.02459  -0.003748  -0.00158  0.01826  -0.001959  -0.4329  -0.8471
6.351e+09  -0.09881  0.04036  0.001995  0.00794  -0.0009244  -0.0003573  -0.6842  -0.644
6.352e+09  -0.06663  0.08149  -0.002197  -0.0006855  -0.004515  -0.004094  -0.8621  -0.3779
6.354e+09  -0.07274  0.09426  -0.005363  -0.004504  0.0004323  -0.00213  -0.9482  -0.06258
6.355e+09  -0.01832  0.1225  -0.007896  0.001284  0.001349  -0.003318  -0.9082  0.2582
6.356e+09  0.01383  0.1181  0.01414  -0.003608  0.006104  -0.01225  -0.7719  0.5611
6.358e+09  0.05558  0.09496  0.002981  -0.002128  -0.0172  0.01558  -0.5215  0.7918
6.359e+09  0.09037  0.06019  -0.004182  0.002628  0.005724  -0.003819  -0.2381  0.9213
6.36e+09  0.1132  0.03404  -0.004599  -0.002813  0.008384  0.004173  0.1046  0.9438
6.361e+09  0.1242  -0.001167  -0.006299  0.004512  -0.01681  -0.0005179  0.4108  0.8463
6.362e+09  0.09997  -0.0223  0.0007317  -0.007297  0.005318  0.002824  0.6816  0.6723
6.364e+09  0.09144  -0.07572  0.007215  -0.006081  0.001714  0.01335  0.8699  0.39
6.365e+09  0.07226  -0.09558  0.0003154  0.003698  -0.004674  0.002036  0.939  0.07355
6.366e+09  0.02085  -0.1129  0.007376  -0.007147  0.001059  0.01001  0.9195  -0.2426
6.368e+09  -0.03196  -0.1111  -0.008443  -0.0006644  0.01187  0.01049  0.7708  -0.5467
6.369e+09  -0.0539  -0.09904  0.003259  0.006968  -0.007172  -0.01152  0.5508  -0.7842
6.37e+09  -0.08431  -0.07268  -0.002093  0.009463  0.002564  0.0149  0.2527  -0.924
6.371e+09  -0.1027  -0.03969  -0.003152  0.005021  0.0007205  0.01144  -0.08033  -0.9515
6.372e+09  -0.1129  -0.01732  0.001088  0.01022  0.01207  0.0006809  -0.3975  -0.8657
6.374e+09  -0.1166  0.04785  0.00235  -0.005262  -0.00587  -0.0175  -0.6699  -0.6479
6.375e+09  -0.09496  0.07536  0.0006783  -0.003763  0.001944  -0.003584  -0.846  -0.4136
6.376e+09  -0.07408  0.07914  0.003381  -0.01197  -0.01107  -0.0122  -0.9336  -0.08761
6.378e+09  -0.02088  0.1082  -0.001298  -0.0005026  -0.03094  0.006763  -0.9119  0.246
6.379e+09  0.006934  0.1103  0.01453  -0.008858  -0.00322  -0.00151  -0.7882  0.5425
6.38e+09  0.03672  0.09969  -0.01082  -0.006059  0.004903  -0.01117  -0.5654  0.7732
6.381e+09  0.08042  0.1013  -0.01026  0.0009035  -0.006084  0.01152  -0.2633  0.9085
6.382e+09  0.1131  0.05448  0.002691  0.008364  0.0146  -0.002183  0.0539  0.9388
6.384e+09  0.1053  0.0278  0.0002256  0.0136  1.84e-05  0.005241  0.3855  0.8656
6.385e+09  0.1081  -0.01717  -0.004548  0.009374  0.003298  0.002722  0.6432  0.6714
6.386e+09  0.1017  -0.0677  0.001915  0.0003569  -0.00773  0.009648  0.8419  0.4394
6.388e+09  0.07229  -0.07255  0.0009288  0.01296  -0.000185  -0.007899  0.933  0.1163
6.389e+09  0.03889  -0.1082  -0.00312  -0.009252  -0.005094  0.001686  0.9175  -0.2002
6.39e+09  0.01258  -0.0923  -0.01161  -0.001653  -0.009322  0.00448  0.7763  -0.5024
6.391e+09  -0.03911  -0.09791  -0.01341  0.007426  -0.003351  0.01055  0.5747  -0.7504
6.392e+09  -0.0598  -0.08907  -0.009682  0.01352  0.009292  -0.0108  0.2642  -0.8866
6.394e+09  -0.08165  -0.04671  -0.01957  -0.0002432  0.002522  -0.01085  -0.0334  -0.9164
6.395e+09  -0.1179  -0.03293  -0.00595  0.000769  0.01068  0.002935  -0.3637  -0.856
6.396e+09  -0.09704  0.005336  -0.003468  0.004993  0.01748  -0.01114  -0.6127  -0.6951
6.398e+09  -0.09234  0.04475  0.002933  0.01292  0.01335  -0.0004447  -0.8  -0.4267
6.399e+09  -0.07152  0.07432  0.003811  0.005034  -0.005709  0.0142  -0.9215  -0.1471
6.4e+09  -0.04027  0.09592  -0.001429  0.001457  0.002794  0.01012  -0.9046  0.1721
6.401e+09  -0.01239  0.09337  -0.005948  0.002791  0.01161  -0.01073  -0.8022  0.4864
6.402e+09  0.0103  0.08064  0.008254  0.001453  -0.007434  0.001658  -0.5827  0.7105
6.404e+09  0.05372  0.08417  -0.002297  0.01445  0.001185  -0.004058  -0.3178  0.8765
6.405e+09  0.08743  0.04231  -0.002162  0.003376  0.002614  0.002753  0.01266  0.9102
6.406e+09  0.08587  0.03197  -0.0003151  -0.01077  0.01124  -0.007096  0.3  0.8536
6.408e+09  0.09387  0.003271  -0.005087  -0.01274  0.002573  0.01386  0.5951  0.7172
6.409e+09  0.08982  -0.02502  0.00256  -0.002898  0.005739  -0.001107  0.7847  0.4672
6.41e+09  0.086  -0.052  -0.004475  0.0006697  -4.047e-05  0.005582  0.9017  0.1706
6.411e+09  0.05649  -0.07392  0.004189  0.002167  0.001654  0.001623  0.8899  -0.149
6.412e+09  0.02043  -0.09698  2.809e-05  0.01252  0.0019  -0.00049  0.7864  -0.4382
6.414e+09  -0.007536  -0.08936  -0.0133  -0.008838  -0.0008363  0.001258  0.6031  -0.6777
6.415e+09  -0.03658  -0.1022  0.001555  0.000276  0.002939  0.006221  0.3263  -0.8285
6.416e+09  -0.05124  -0.07538  -0.001626  -0.00474  -0.01958  0.006949  0.03861  -0.8866
6.418e+09  -0.06798  -0.05202  0.006187  0.0006896  -0.007797  -0.008491  -0.2726  -0.8621
6.419e+09  -0.09293  -0.01954  0.009314  0.003729  -0.0176  0.004235  -0.536  -0.6962
6.42e+09  -0.09109  0.01241  -0.006855  0.005153  0.002542  -0.01958  -0.7523  -0.4864
6.421e+09  -0.05102  0.05187  0.01626  0.006436  -0.01156  -0.01445  -0.8582  -0.18
6.422e+09  -0.06787  0.06795  -0.0005286  0.003346  0.005616  -0.02594  -0.8801  0.09866
6.424e+09  -0.03937  0.09294  -0.001378  0.001602  -0.001708  0.006032  -0.8037  0.4053
6.425e+09  -0.0153  0.06597  0.006953  0.01453  -0.01245  0.01021  -0.6007  0.6533
6.426e+09  0.0345  0.08594  0.006584  0.02221  -0.006709  -0.0006793  -0.3487  0.8217
6.428e+09  0.05064  0.07785  0.005548  0.005329  -0.009113  0.003119  -0.06803  0.8757
6.429e+09  0.07683  0.04606  0.002931  0.003804  -0.008967  -0.01694  0.2481  0.8532
6.43e+09  0.09762  0.01047  0.004633  -0.008942  -0.02156  0.008225  0.5175  0.7035
6.431e+09  0.07973  0.01094  0.01252  -0.007143  0.01119  0.0005177  0.7199  0.482
6.432e+09  0.08597  -0.0288  -0.004869  0.01791  0.01057  -0.001618  0.8507  0.2202
6.434e+09  0.05032  -0.06247  0.002123  -0.002545  -0.01086  -0.004116  0.8726  -0.09514
6.435e+09  0.04283  -0.07601  0.002423  0.003071  0.0043  0.004477  0.7688  -0.382
6.436e+09  0.009286  -0.08723  0.004165  0.006136  -0.01568  -0.0001551  0.6141  -0.6211
6.438e+09  -0.01817  -0.07209  0.002172  0.002631  -0.0129  -0.003009  0.3485  -0.7948
6.439e+09  -0.0205  -0.07864  0.004689  -0.005556  -0.02216  0.0009283  0.072  -0.8808
6.44e+09  -0.06497  -0.05591  0.004365  0.002578  -0.0007693  0.002354  -0.2377  -0.8242
6.441e+09  -0.08174  -0.02015  0.001558  0.008115  0.008846  0.00319  -0.4934  -0.6833
6.442e+09  -0.07264  0.01016  -0.02137  0.005606  0.001333  0.003286  -0.6948  -0.4771
6.444e+09  -0.08087  0.02437  -0.002654  0.003319  -0.005465  -0.01522  -0.8172  -0.2053
6.445e+09  -0.05942  0.0544  -0.006919  0.001964  -0.01188  -0.001924  -0.8511  0.09627
6.446e+09  -0.02645  0.05902  0.007494  -0.00896  -0.003841  -0.007403  -0.7707  0.3691
6.448e+09  -0.04744  0.07008  0.01378  -0.0153  0.004723  -0.01186  -0.5961  0.5866
6.449e+09  0.001861  0.08324  -0.003724  0.005588  0.00928  0.01149  -0.3479  0.7689
6.45e+09  0.01331  0.07611  -0.005898  0.003799  -0.002771  -0.01996  -0.07622  0.8322
6.451e+09  0.04683  0.04903  -0.01402  -0.004791  0.006417  0.008346  0.2213  0.8059
6.452e+09  0.06075  0.03228  0.007527  -0.002147  0.00162  -0.001188  0.4939  0.6869
6.454e+09  0.07742  0.01807  0.007003  0.005155  -0.01013  0.002279  0.6905  0.4778
6.455e+09  0.05418  -0.02152  -0.003669  0.005181  -0.005825  -0.00382  0.8075  0.2119
6.456e+09  0.06161  -0.04262  0.01258  0.005882  0.0002749  -0.01382  0.8203  -0.06991
6.458e+09  0.06145  -0.03838  0.01439  -0.01142  0.003373  -0.01254  0.7555  -0.354
6.459e+09  0.009955  -0.06042  -0.006798  0.01099  0.01189  0.01112  0.5763  -0.5824
6.46e+09  0.01582  -0.0504  -0.003774  -0.009861  0.0108  0.01064  0.3531  -0.7263
6.461e+09  -0.01425  -0.05567  0.003315  -0.0009948  -0.01032  0.003639  0.05807  -0.8025
6.462e+09  -0.04306  -0.0462  0.0005622  0.0169  -0.002061  -0.005032  -0.2206  -0.7893
6.464e+09  -0.04504  -0.05029  0.007991  0.007897  0.00349  -0.003478  -0.4873  -0.6619
6.465e+09  -0.0332  -0.009899  -0.007997  -0.01036  -0.00865  -0.003196  -0.6601  -0.457
6.466e+09  -0.05404  0.004328  0.005527  0.01154  -0.005026  0.005588  -0.7759  -0.2011
6.468e+09  -0.06465  0.02434  0.005926  -0.0004781  0.0009387  0.001048  -0.8002  0.08793
6.469e+09  -0.061  0.03155  -0.005405  0.009919  0.001788  0.0003645  -0.7291  0.3436
6.47e+09  -0.02844  0.04763  -0.003151  0.006495  -0.004361  -0.00132  -0.5551  0.5677
6.471e+09  -0.001234  0.05833  0.01113  0.0007197  0.003437  0.01035  -0.3367  0.7242
6.472e+09  0.01018  0.0602  -0.003916  -0.002761  -0.01244  -0.004403  -0.06957  0.8041
6.474e+09  0.0192  0.06352  0.008538  0.008164  -0.01052  -0.009935  0.2033  0.7652
6.475e+09  0.02227  0.02526  0.0003877  0.003808  -0.005955  -0.0165  0.45  0.6174
6.476e+09  0.05554  0.02206  0.007993  0.003244  0.01076  -0.001919  0.6629  0.439
6.478e+09  0.04932  -0.00026  -0.0001893  0.01099  0.0002557  -0.005561  0.7757  0.1824
6.479e+09  0.06848  -0.01336  -0.004447  -0.01242  -0.002731  0.004657  0.7869  -0.09747
6.48e+09  0.04111  -0.03474  -0.005437  0.01113  0.001613  -0.01072  0.7098  -0.3591
6.481e+09  0.03332  -0.03094  -0.002204  0.01237  -0.002722  0.002539  0.5527  -0.5574
6.482e+09  0.02818  -0.06078  -0.001984  -0.02051  0.003841  -0.007581  0.3247  -0.7194
6.484e+09  0.01499  -0.05499  -0.007036  0.009894  -0.01338  -0.006203  0.05403  -0.7738
6.485e+09  -0.004305  -0.07414  0.007413  0.01137  0.01728  -0.001968  -0.2172  -0.7512
6.486e+09  -0.03674  -0.02974  0.005304  0.0007925  0.003347  -0.00443  -0.4694  -0.6335
6.488e+09  -0.04748  -0.01913  -0.01736  0.0111  0.006617  -0.00701  -0.64  -0.4304
6.489e+09  -0.0483  -0.004456  0.003287  0.00159  -0.00586  0.006874  -0.7528  -0.1817
6.49e+09  -0.04505  -0.007298  0.001978  0.007705  -0.004705  -0.01125  -0.7641  0.09228
6.491e+09  -0.05078  0.01832  -0.006232  0.002691  -0.007534  0.009428  -0.6943  0.3409
6.492e+09  -0.03895  0.02304  0.000777  -3.673e-05  0.001461  -0.002358  -0.5278  0.5722
6.494e+09  -0.02871  0.0503  0.01524  0.01017  0.004996  0.004843  -0.3076  0.6939
6.495e+09  -0.008513  0.03229  -0.008943  -3.816e-05  0.004236  0.002449  -0.03701  0.7765
6.496e+09  0.01006  0.05619  0.002498  0.004996  -0.006397  -0.003514  0.2314  0.7299
6.498e+09  0.01108  0.03773  -0.001171  0.001493  -0.001122  -0.003754  0.4571  0.6234
6.499e+09  0.03842  0.03624  0.003656  0.007225  -0.0123  -0.006223  0.6627  0.4274
6.5e+09  0.02646  0.03395  0.002359  0.01457  -0.005288  0.001576  0.7629  0.1605
6.501e+09  0.04166  0.01033  0.003924  0.008593  -0.001471  -0.004086  0.7507  -0.09551
6.502e+09  0.03851  0.01489  0.00319  0.004399  -0.01197  -0.02249  0.6806  -0.365
6.504e+09  0.05276  -0.02979  0.003925  0.004651  -0.01032  0.005303  0.5168  -0.5654
6.505e+09  0.02424  -0.03081  -0.004568  0.01607  0.005909  -0.001151  0.274  -0.7004
6.506e+09  0.01052  -0.03775  -0.006395  0.001812  0.003962  0.01928  0.001669  -0.77
6.508e+09  0.02436  -0.04214  -0.008193  -0.004699  0.004417  -0.00555  -0.2482  -0.7285
6.509e+09  -0.03329  -0.047  -0.006744  -0.009816  0.004405  0.0032  -0.4799  -0.5902
6.51e+09  -0.02691  -0.03725  0.0072  -0.003882  0.005923  0.0002217  -0.6526  -0.3836
6.511e+09  -0.05586  -0.01916  -0.006617  -0.008063  -0.00654  -0.003827  -0.7493  -0.1338
6.512e+09  -0.04367  -0.02843  0.001169  0.003959  0.006072  -0.00504  -0.7442  0.1325
6.514e+09  -0.04785  0.003938  -0.0007396  0.002597  0.004051  -0.01866  -0.6503  0.3824
6.515e+09  -0.04435  0.01828  0.0001513  -0.002834  0.009594  0.005558  -0.476  0.5896
6.516e+09  -0.02369  0.04087  0.01392  0.002381  -0.006104  0.01031  -0.2476  0.7153
6.518e+09  -0.03603  0.02826  0.01019  0.004173  0.002643  0.008564  0.01994  0.7554
6.519e+09  -0.03535  0.04194  -0.002918  -0.002152  0.01407  -0.01517  0.2878  0.7012
6.52e+09  0.0007705  0.05151  0.003983  -0.01598  0.01524  -0.02555  0.4935  0.5614
6.521e+09  0.01156  0.04801  0.01119  0.001931  0.003438  -0.005032  0.6534  0.3573
6.522e+09  0.02094  0.04254  -0.004748  0.0001508  -0.00828  -0.00331  0.7357  0.108
6.524e+09  0.02862  0.03165  -0.007195  -0.01158  -0.007433  0.004488  0.7248  -0.1671
6.525e+09  0.04043  -0.0005246  -0.005566  -0.001283  0.0004803  -0.005596  0.6185  -0.3974
6.526e+09  0.05059  -0.008041  -0.007666  -0.002974  0.009995  -0.009414  0.4265  -0.5805
6.528e+09  0.05093  -0.01885  -0.002806  -0.002267  0.009427  0.008408  0.1905  -0.6909
6.529e+09  0.0239  -0.0263  0.005713  -0.003582  -0.01358  -0.0212  -0.04781  -0.7068
6.53e+09  0.02511  -0.03767  -0.008801  -0.003771  -0.01099  -0.01701  -0.2796  -0.6247
6.531e+09  -0.0003169  -0.05629  0.002066  0.001858  0.001002  -0.005092  -0.46  -0.4856
6.532e+09  -0.02703  -0.05237  0.001177  -0.004044  -0.01562  0.006441  -0.5864  -0.2956
6.534e+09  -0.03638  -0.05211  -0.006905  -0.01108  -0.007882  0.01017  -0.6319  -0.08031
6.535e+09  -0.02941  -0.03027  0.004591  -0.007413  0.01823  -0.01921  -0.6335  0.1077
6.536e+09  -0.04851  -0.0117  -0.001585  -0.001096  0.01694  -0.01928  -0.5598  0.306
6.538e+09  -0.03089  0.01311  0.005184  0.008285  0.01109  -7.893e-05  -0.4531  0.4701
