# Hz S RI R 50
6.25e+09  -0.2821  0.8841  -0.02764  -0.01424  -0.001512  0.03398  0.7006  0.3454
6.251e+09  0.01816  0.9099  -0.02703  -0.0001982  0.0018  0.01933  0.7848  0.08519
6.252e+09  0.3379  0.8666  -0.03911  0.00291  0.04167  0.04276  0.7612  -0.1927
6.254e+09  0.6027  0.6707  -0.02788  0.01468  0.02258  0.03035  0.6495  -0.4372
6.255e+09  0.7936  0.4466  -0.01795  0.02598  0.04835  0.01378  0.4642  -0.6274
6.256e+09  0.8833  0.1481  -0.01078  0.03606  0.04477  -0.006532  0.2179  -0.7461
6.258e+09  0.871  -0.1636  0.008828  0.03523  0.05423  -0.01218  -0.0589  -0.786
6.259e+09  0.7734  -0.4588  0.01036  0.0246  0.007641  -0.01269  -0.3165  -0.7178
6.26e+09  0.5637  -0.6969  0.02339  0.03417  0.01965  -0.04057  -0.5487  -0.559
6.261e+09  0.316  -0.8103  0.0295  0.0134  0.0196  -0.04929  -0.7179  -0.3496
6.262e+09  0.02202  -0.8922  0.03352  0.004993  0.001111  -0.04164  -0.7828  -0.08469
6.264e+09  -0.3033  -0.8536  0.03721  -0.00602  -0.01359  -0.04379  -0.757  0.1793
6.265e+09  -0.5678  -0.6812  0.02804  -0.004799  -0.03284  -0.02657  -0.6522  0.4351
6.266e+09  -0.76  -0.4487  0.02441  -0.02668  -0.04529  -0.0217  -0.4714  0.6425
6.268e+09  -0.8577  -0.1522  0.01272  -0.03171  -0.03863  -0.01122  -0.2157  0.7722
6.269e+09  -0.8756  0.1565  -0.009339  -0.03331  -0.04272  0.01793  0.04878  0.7978
6.27e+09  -0.7649  0.4432  -0.0199  -0.0261  -0.05281  -0.003028  0.3204  0.7327
6.271e+09  -0.577  0.6637  -0.01654  -0.02716  -0.02699  0.04096  0.5475  0.5784
6.272e+09  -0.3131  0.8248  -0.03259  -0.02202  -0.03252  0.0409  0.7257  0.3622
6.274e+09  -0.0105  0.853  -0.04534  0.001988  0.001969  0.0653  0.797  0.08313
6.275e+09  0.2864  0.8284  -0.03666  0.01103  0.01934  0.03938  0.7788  -0.196
6.276e+09  0.5542  0.6817  -0.03413  0.02773  0.04897  0.03443  0.6678  -0.4447
6.278e+09  0.7552  0.4617  -0.03059  0.03278  0.04746  0.01482  0.4642  -0.6632
6.279e+09  0.8615  0.1697  -0.01472  0.03575  0.05816  -0.006183  0.2126  -0.7797
6.28e+09  0.8613  -0.1154  0.009513  0.05436  0.05201  -0.01342  -0.05558  -0.812
6.281e+09  0.7825  -0.412  0.02309  0.02938  0.04143  -0.05569  -0.3352  -0.7497
6.282e+09  0.5994  -0.6557  0.04067  0.0292  0.04283  -0.04775  -0.5687  -0.5963
6.284e+09  0.3248  -0.8056  0.0474  0.01268  0.009187  -0.05499  -0.7302  -0.3504
6.285e+09  0.01637  -0.8803  0.04176  0.008303  -0.01666  -0.06839  -0.8145  -0.09146
6.286e+09  -0.2755  -0.8215  0.04898  -0.01704  -0.02578  -0.05579  -0.7986  0.2029
6.288e+09  -0.5384  -0.6939  0.0436  -0.0275  -0.05651  -0.05681  -0.6774  0.4655
6.289e+09  -0.7481  -0.4502  0.01832  -0.04622  -0.04673  -0.03338  -0.465  0.6752
6.29e+09  -0.8642  -0.1854  0.005952  -0.05284  -0.07595  0.008921  -0.2216  0.8014
6.291e+09  -0.8577  0.1036  -0.00892  -0.05407  -0.07825  0.02582  0.08833  0.8216
6.292e+09  -0.7748  0.4073  -0.03303  -0.04282  -0.07767  0.03232  0.3605  0.7481
6.294e+09  -0.591  0.639  -0.0445  -0.03514  -0.05385  0.06124  0.6036  0.5812
6.295e+09  -0.3289  0.7849  -0.06352  -0.02218  -0.01645  0.07655  0.7614  0.3477
6.296e+09  -0.03341  0.8613  -0.06579  0.005273  0.006761  0.08032  0.8331  0.05883
6.298e+09  0.2745  0.8336  -0.0679  0.03577  0.03964  0.07256  0.7968  -0.2388
6.299e+09  0.5308  0.6959  -0.05182  0.04668  0.05889  0.05943  0.6658  -0.5058
6.3e+09  0.7361  0.4509  -0.02931  0.07279  0.09229  0.01404  0.4495  -0.7007
6.301e+09  0.8436  0.1944  -0.01004  0.0757  0.11  -0.008028  0.1683  -0.8075
6.302e+09  0.8401  -0.1143  0.02239  0.0698  0.09117  -0.04889  -0.1213  -0.8178
6.304e+09  0.7741  -0.4055  0.05769  0.07039  0.08864  -0.07688  -0.4129  -0.724
6.305e+09  0.5687  -0.6348  0.0816  0.04335  0.04413  -0.135  -0.6344  -0.5178
6.306e+09  0.3133  -0.7691  0.09939  0.01055  -0.02739  -0.137  -0.7674  -0.2557
6.308e+09  0.04384  -0.8312  0.1002  -0.02496  -0.05503  -0.1238  -0.8073  0.02462
6.309e+09  -0.2769  -0.8164  0.09268  -0.07365  -0.09717  -0.09293  -0.7306  0.3139
6.31e+09  -0.5125  -0.6618  0.05529  -0.09932  -0.1434  -0.06899  -0.5492  0.5479
6.311e+09  -0.687  -0.4517  0.009668  -0.1339  -0.1719  0.008858  -0.3139  0.6857
6.312e+09  -0.8136  -0.1832  -0.04693  -0.134  -0.1667  0.07847  -0.04613  0.7255
6.314e+09  -0.8062  0.1176  -0.1051  -0.1144  -0.1096  0.1757  0.2197  0.6479
6.315e+09  -0.7183  0.3677  -0.1621  -0.04819  -0.04711  0.2173  0.3982  0.494
6.316e+09  -0.5466  0.6002  -0.1599  0.02217  0.04301  0.2251  0.4941  0.3177
6.318e+09  -0.3009  0.741  -0.1288  0.1066  0.1605  0.1876  0.5152  0.13
6.319e+09  -0.06094  0.7935  -0.08092  0.176  0.2215  0.1074  0.4762  -0.02649
6.32e+09  0.1927  0.7465  0.004637  0.1878  0.2601  -0.0288  0.4218  -0.1423
6.321e+09  0.439  0.6534  0.09346  0.1542  0.2024  -0.1438  0.3717  -0.1835
6.322e+09  0.6445  0.4931  0.1545  0.1085  0.09279  -0.2112  0.3447  -0.2642
6.324e+09  0.7695  0.2486  0.1817  0.02036  0.008667  -0.2239  0.3121  -0.3568
6.325e+09  0.8266  -0.03185  0.1529  -0.06015  -0.08534  -0.1897  0.2049  -0.4855
6.326e+09  0.7682  -0.3219  0.1075  -0.1267  -0.163  -0.1465  0.05296  -0.5735
6.328e+09  0.6325  -0.5493  0.04262  -0.1371  -0.1845  -0.05097  -0.1498  -0.6058
6.329e+09  0.3878  -0.7584  -0.007878  -0.1471  -0.18  0.02741  -0.362  -0.5635
6.33e+09  0.1176  -0.8368  -0.07623  -0.1086  -0.1232  0.09858  -0.5635  -0.4079
6.331e+09  -0.1939  -0.8523  -0.09995  -0.06474  -0.09492  0.1202  -0.7104  -0.1938
6.332e+09  -0.4661  -0.7413  -0.1056  -0.01817  -0.01309  0.1387  -0.7467  0.07438
6.334e+09  -0.6963  -0.5214  -0.1062  0.01538  0.03349  0.1353  -0.6995  0.3431
6.335e+09  -0.842  -0.2524  -0.07258  0.05219  0.0729  0.1183  -0.5448  0.5859
6.336e+09  -0.8939  0.04691  -0.04378  0.07537  0.1073  0.06917  -0.3208  0.7504
6.338e+09  -0.8057  0.3511  -0.0166  0.09485  0.1212  0.02195  -0.02581  0.8283
6.339e+09  -0.6441  0.6288  0.02344  0.08269  0.1147  -0.02579  0.2587  0.797
6.34e+09  -0.3898  0.8156  0.03618  0.06808  0.08713  -0.05516  0.5334  0.6583
6.341e+09  -0.08233  0.9008  0.0529  0.04166  0.07279  -0.07222  0.7439  0.4502
6.342e+09  0.2179  0.8739  0.06407  0.02204  0.02592  -0.0851  0.8566  0.1619
6.344e+09  0.5306  0.7396  0.07027  -0.007138  -0.00887  -0.08054  0.8811  -0.1476
6.345e+09  0.7517  0.5263  0.06001  -0.02511  -0.02751  -0.07681  0.7538  -0.4497
6.346e+09  0.8781  0.2338  0.03688  -0.03804  -0.06551  -0.05423  0.5667  -0.6883
6.348e+09  0.889  -0.09051  0.0188  -0.04635  -0.0804  -0.03753  0.2951  -0.8423
6.349e+09  0.8008  -0.3894  0.002907  -0.04788  -0.06594  -0.002128  -0.01416  -0.9053
6.35e+09  0.6377  -0.6513  -0.02247  -0.05859  -0.06248  0.01578  -0.3306  -0.8434
6.351e+09  0.3678  -0.8345  -0.04477  -0.04521  -0.05222  0.03747  -0.6068  -0.6908
6.352e+09  0.06491  -0.9121  -0.03998  -0.01973  -0.03616  0.06032  -0.796  -0.439
6.354e+09  -0.2642  -0.863  -0.04811  -0.002386  -0.001276  0.05395  -0.9095  -0.1285
6.355e+09  -0.5383  -0.7272  -0.04393  0.0003711  0.007442  0.05187  -0.9074  0.1794
6.356e+09  -0.7711  -0.4923  -0.02932  0.01704  0.02472  0.04478  -0.772  0.4941
6.358e+09  -0.8874  -0.1971  -0.02292  0.03489  0.04401  0.02921  -0.5691  0.7352
6.359e+09  -0.8972  0.1155  -0.01089  0.03947  0.03866  0.006002  -0.289  0.8825
6.36e+09  -0.8072  0.4465  0.007691  0.0376  0.04787  -0.00652  0.02554  0.9467
6.361e+09  -0.6104  0.6804  0.02153  0.03684  0.03672  -0.02237  0.3519  0.8668
6.362e+09  -0.3356  0.859  0.02687  0.02796  0.04144  -0.03642  0.63  0.7135
6.364e+09  -0.008801  0.9254  0.04389  0.01374  0.026  -0.04159  0.8203  0.4485
6.365e+09  0.2942  0.8578  0.03543  -0.002296  0.006747  -0.05162  0.9341  0.1405
6.366e+09  0.5662  0.7032  0.02343  -0.007173  -0.006697  -0.02981  0.9178  -0.1929
6.368e+09  0.7721  0.4712  0.03156  -0.02904  -0.03669  -0.03183  0.8033  -0.4993
6.369e+09  0.8843  0.1469  0.0153  -0.02834  -0.02528  -0.02241  0.5631  -0.7521
6.37e+09  0.8951  -0.1619  0.009984  -0.03989  -0.04129  -0.005725  0.2875  -0.8819
6.371e+09  0.7872  -0.4534  -0.01037  -0.03073  -0.02848  0.0009486  -0.01743  -0.9366
6.372e+09  0.5927  -0.6925  -0.005951  -0.02406  -0.02437  0.0228  -0.3474  -0.8746
6.374e+09  0.3112  -0.8573  -0.0248  -0.0251  -0.02067  0.0101  -0.6175  -0.7026
6.375e+09  -0.01741  -0.9031  -0.03679  -0.01947  -0.02027  0.04484  -0.8382  -0.4376
6.376e+09  -0.3051  -0.8533  -0.03047  0.01709  0.007294  0.04203  -0.9201  -0.1302
6.378e+09  -0.5818  -0.6963  -0.03376  0.005583  0.01729  0.0266  -0.9095  0.1983
6.379e+09  -0.793  -0.4482  -0.02656  0.01038  0.02257  0.02925  -0.7896  0.4926
6.38e+09  -0.889  -0.1327  -0.02064  0.01899  0.01596  0.01642  -0.574  0.7383
6.381e+09  -0.8938  0.1818  -0.003422  0.01011  0.03534  0.01467  -0.283  0.8842
6.382e+09  -0.7687  0.46  0.008313  0.02076  0.03367  -0.001297  0.02107  0.9297
6.384e+09  -0.5774  0.7035  0.0005198  0.01477  0.02071  -0.01003  0.3508  0.875
6.385e+09  -0.2928  0.8552  0.01276  0.01248  0.02802  -0.02273  0.6349  0.6993
6.386e+09  0.02548  0.8993  0.02179  0.01175  0.0149  0.00139  0.8356  0.4349
6.388e+09  0.3256  0.8452  0.02564  0.001601  0.001985  -0.0382  0.9336  0.1442
6.389e+09  0.6078  0.6823  0.02018  0.003588  -0.005969  -0.02454  0.9416  -0.1787
6.39e+09  0.802  0.4103  0.0209  -0.01208  -0.01459  -0.02724  0.7985  -0.468
6.391e+09  0.8853  0.129  0.01586  -0.01764  -0.02373  -0.02226  0.5788  -0.7149
6.392e+09  0.8983  -0.1925  0.009955  -0.01742  -0.01527  -0.004487  0.3141  -0.8711
6.394e+09  0.7512  -0.4832  0.002805  -0.01797  -0.02316  0.01172  -0.01387  -0.9277
6.395e+09  0.5434  -0.6937  -0.01031  -0.02389  -0.01549  0.008877  -0.322  -0.8629
6.396e+09  0.255  -0.8387  -0.01076  -0.01984  -0.02448  0.04177  -0.5831  -0.7055
6.398e+09  -0.03178  -0.8906  -0.02337  -0.006473  -0.005125  0.01965  -0.7954  -0.4614
6.399e+09  -0.3342  -0.8143  -0.01385  -0.002641  -0.008918  0.01887  -0.8963  -0.1572
6.4e+09  -0.5992  -0.6521  -0.0183  0.01389  0.02529  0.02707  -0.9072  0.1442
6.401e+09  -0.779  -0.3979  -0.008078  0.007595  0.01334  0.01042  -0.794  0.4473
6.402e+09  -0.8611  -0.1124  -0.009575  0.009206  0.02695  0.00812  -0.615  0.6908
6.404e+09  -0.8365  0.1902  0.006089  0.0178  0.0309  -0.0005614  -0.3279  0.8616
6.405e+09  -0.7166  0.4672  -0.00183  0.005786  0.0096  0.001983  -0.01979  0.916
6.406e+09  -0.5094  0.6758  0.0167  0.006696  0.01958  -0.01434  0.2883  0.8699
6.408e+09  -0.2493  0.8181  0.006894  0.01465  0.02701  -0.01237  0.5665  0.7288
6.409e+09  0.03416  0.8401  0.01741  0.0001281  0.01321  -0.02139  0.7813  0.498
6.41e+09  0.3281  0.7732  0.02035  -0.003752  -0.01587  -0.0241  0.8889  0.1928
6.411e+09  0.5796  0.6021  0.004873  -0.009508  0.009379  -0.01174  0.9081  -0.1267
6.412e+09  0.7606  0.3649  0.005791  -0.009032  -0.01567  -0.01291  0.8059  -0.4166
6.414e+09  0.8314  0.09231  0.009191  -0.0111  -0.01158  -0.01547  0.6092  -0.6629
6.415e+09  0.8112  -0.1902  -0.005465  -0.009875  -0.009232  -0.01725  0.3485  -0.8316
6.416e+09  0.6902  -0.4477  -0.00552  -0.0157  -0.01943  -0.01247  0.04511  -0.9
6.418e+09  0.4901  -0.6572  -1.244e-06  -0.008462  -0.01551  -0.003299  -0.2647  -0.8576
6.419e+09  0.2458  -0.7682  -0.008776  -0.00936  -0.01378  0.0262  -0.5244  -0.7159
6.42e+09  -0.03982  -0.8328  -0.02103  -0.01691  -0.008622  0.006988  -0.7289  -0.4983
6.421e+09  -0.2981  -0.7423  0.0002003  0.00706  -0.0005667  0.01375  -0.8726  -0.2096
6.422e+09  -0.5478  -0.5893  -0.009126  0.00731  0.01772  0.02075  -0.8823  0.09985
6.424e+09  -0.6996  -0.3603  -0.01333  0.02618  0.004475  0.01534  -0.8092  0.3896
6.425e+09  -0.7901  -0.1263  -0.0248  0.01332  0.01866  0.00537  -0.6195  0.6415
6.426e+09  -0.7579  0.1668  -0.005842  0.004088  0.0178  0.0102  -0.3581  0.8017
6.428e+09  -0.6471  0.394  0.001568  0.02043  0.02739  -0.01252  -0.06931  0.8679
6.429e+09  -0.4915  0.5931  0.01037  0.006543  0.01886  -0.01172  0.2438  0.836
6.43e+09  -0.257  0.7439  0.005937  0.008658  0.01385  -0.02776  0.5047  0.7175
6.431e+09  0.003578  0.7732  0.008556  -0.003835  0.01221  -0.005146  0.7167  0.5043
6.432e+09  0.2513  0.7174  0.005146  0.004863  0.003305  -0.0204  0.8384  0.2243
6.434e+09  0.4682  0.5996  0.0009221  0.006021  -0.005983  -0.000559  0.8519  -0.0744
6.435e+09  0.6317  0.3935  0.00356  -0.01447  0.002049  -0.01467  0.7621  -0.3652
6.436e+09  0.7413  0.1643  0.002526  -0.01466  -0.01504  -0.02635  0.6016  -0.6077
6.438e+09  0.7533  -0.09237  0.009019  -0.004781  -0.02831  0.002783  0.3654  -0.7905
6.439e+09  0.6758  -0.3195  -0.005899  -0.01013  -0.01059  -0.007875  0.0767  -0.8673
6.44e+09  0.5309  -0.5425  -0.02387  -0.01569  -0.01801  -0.008125  -0.2251  -0.8312
6.441e+09  0.3179  -0.678  -0.008919  -0.003652  0.007791  0.008676  -0.4905  -0.7069
6.442e+09  0.07461  -0.7647  -0.02675  -0.000483  0.003422  0.02157  -0.7035  -0.5143
6.444e+09  -0.1804  -0.7529  -0.008893  0.001949  0.00819  0.01385  -0.8313  -0.2141
6.445e+09  -0.4128  -0.6491  0.001441  0.004115  -0.009484  0.01894  -0.8455  0.0686
6.446e+09  -0.6007  -0.4595  7.742e-06  0.01329  0.01743  0.01698  -0.7542  0.358
6.448e+09  -0.7161  -0.2202  -0.005107  0.002818  0.01206  0.01153  -0.5997  0.5959
6.449e+09  -0.7725  0.02757  0.0002375  -0.001235  0.003911  -0.0008539  -0.3663  0.7726
6.45e+09  -0.7065  0.2667  0.003355  0.009377  0.02339  -0.009126  -0.0779  0.8446
6.451e+09  -0.5808  0.5191  0.005638  -0.001401  -0.0006952  -0.005003  0.2136  0.8288
6.452e+09  -0.3768  0.6846  0.002726  0.01246  0.01428  -0.006798  0.4768  0.6908
6.454e+09  -0.1039  0.7788  0.01839  0.003317  0.0118  -0.01925  0.6707  0.479
6.455e+09  0.1273  0.7765  0.005014  -0.0013  -0.006269  -0.006074  0.798  0.2275
6.456e+09  0.4031  0.6962  0.01492  0.004448  0.002616  -0.02479  0.828  -0.06302
6.458e+09  0.608  0.5165  0.02252  0.00755  0.003972  -0.02457  0.7514  -0.3348
6.459e+09  0.7558  0.2962  0.001344  -0.007981  -0.003923  -0.01165  0.5945  -0.582
6.46e+09  0.8039  0.01313  -0.001492  -0.02217  -0.01463  -0.00848  0.3425  -0.7538
6.461e+09  0.757  -0.2726  -0.01582  -0.009683  -0.01184  0.003475  0.07736  -0.8192
6.462e+09  0.6308  -0.5107  -0.01189  -0.01011  -0.01186  0.01296  -0.205  -0.7885
6.464e+09  0.4198  -0.7059  -0.003887  -0.01315  -0.0156  0.003883  -0.4701  -0.6798
6.465e+09  0.1574  -0.8037  -0.01875  -0.002997  -0.005886  0.0182  -0.6557  -0.4698
6.466e+09  -0.1365  -0.8257  0.004511  -0.0162  0.002307  0.01353  -0.7751  -0.2058
6.468e+09  -0.3848  -0.7258  0.0005865  -0.01635  0.01669  0.009098  -0.8013  0.07158
6.469e+09  -0.6285  -0.5614  0.01317  0.01152  0.01517  -0.0002642  -0.7204  0.3135
6.47e+09  -0.7884  -0.3045  0.001338  0.002739  0.01078  7.372e-05  -0.5571  0.5622
6.471e+09  -0.8201  -0.02332  -0.004256  0.01693  0.001573  0.006507  -0.3548  0.7246
6.472e+09  -0.7934  0.2589  -0.001674  0.000608  0.008196  0.0007043  -0.08029  0.7811
6.474e+09  -0.6699  0.5121  0.001159  0.01078  0.01903  0.008415  0.2095  0.7664
6.475e+09  -0.456  0.718  0.01331  0.005383  0.02155  -0.003529  0.4422  0.6606
6.476e+09  -0.1981  0.8404  0.00621  0.003165  0.004429  -0.01742  0.6505  0.4588
6.478e+09  0.1008  0.8602  0.02267  0.002245  0.007154  -0.007614  0.7635  0.2038
6.479e+09  0.3832  0.7494  0.007266  -0.01985  0.0034  -0.00877  0.8007  -0.06128
6.48e+09  0.626  0.5723  -0.00184  -0.002163  -0.01487  -0.005592  0.7057  -0.3158
6.481e+09  0.7878  0.3248  -0.001557  -0.01289  -0.01013  -0.01501  0.5625  -0.553
6.482e+09  0.8494  0.04844  -0.004117  -0.004724  -0.01603  -0.009839  0.3369  -0.7189
6.484e+09  0.8244  -0.2322  -0.005212  0.001966  -0.01456  -0.003147  0.07411  -0.7883
6.485e+09  0.6786  -0.5008  -0.008375  -0.001943  0.001275  0.004176  -0.2154  -0.7408
6.486e+09  0.4741  -0.7072  -0.002318  -0.001248  -0.0144  0.00716  -0.4413  -0.6491
6.488e+09  0.1893  -0.8348  -0.003574  -0.001416  -0.01551  0.009661  -0.6423  -0.4401
6.489e+09  -0.09113  -0.8628  0.0007879  -0.01401  0.00773  -0.001334  -0.7503  -0.2009
6.49e+09  -0.4002  -0.7724  -0.0046  0.01051  0.007111  0.005902  -0.7747  0.06643
6.491e+09  -0.6228  -0.6064  -0.0103  -0.00817  0.005582  0.005747  -0.6994  0.3318
6.492e+09  -0.7938  -0.3565  -0.01337  0.0008774  -0.003322  0.01778  -0.5325  0.5537
6.494e+09  -0.8709  -0.05486  -0.007706  0.01207  0.01996  0.003832  -0.3289  0.699
6.495e+09  -0.826  0.2429  0.001643  0.01047  0.004392  0.009218  -0.07423  0.7752
6.496e+09  -0.7024  0.5196  0.01301  0.01035  0.0008522  -0.0005551  0.2049  0.7361
6.498e+09  -0.4958  0.7302  0.003204  0.004867  0.01041  0.01001  0.4625  0.6291
6.499e+09  -0.2173  0.8658  0.004334  -0.008332  0.003143  -0.005309  0.6378  0.4336
6.5e+09  0.08921  0.8791  0.005734  -0.006547  -0.002817  -0.01631  0.7453  0.1892
6.501e+09  0.3884  0.7887  0.005375  -0.01043  0.002952  -0.00551  0.7619  -0.07775
6.502e+09  0.6292  0.6072  0.01015  0.0006255  -0.01071  -0.01307  0.6881  -0.3437
6.504e+09  0.7997  0.3571  0.01104  -0.01144  0.009101  -0.006696  0.5316  -0.5554
6.505e+09  0.8767  0.0635  -0.00128  -0.00545  -0.007095  -0.009449  0.3076  -0.7045
6.506e+09  0.8483  -0.2166  0.002099  -0.01859  -0.005939  -0.008071  0.04794  -0.7662
6.508e+09  0.725  -0.498  -0.01155  -0.01192  -0.01289  -0.002978  -0.2234  -0.7341
6.509e+09  0.515  -0.716  -0.004113  0.00441  -0.00462  0.001056  -0.4582  -0.5991
6.51e+09  0.249  -0.8603  -0.01699  0.001342  -0.004948  -0.003193  -0.6248  -0.42
6.511e+09  -0.0621  -0.8835  -0.01066  0.001412  0.009773  0.005951  -0.7472  -0.1612
6.512e+09  -0.3652  -0.8199  -0.0007394  -0.004974  0.01748  0.03715  -0.7521  0.09979
6.514e+09  -0.6319  -0.644  -0.009195  0.008012  0.003032  0.01807  -0.6703  0.351
6.515e+09  -0.802  -0.378  -0.002821  0.008856  0.007945  0.0122  -0.5055  0.5562
6.516e+09  -0.9231  -0.1048  0.0006185  0.008228  0.01363  0.01132  -0.2946  0.698
6.518e+09  -0.8811  0.2257  -0.001155  -0.001134  0.00926  0.009908  -0.02142  0.7664
6.519e+09  -0.7584  0.5083  0.004036  0.001229  0.004624  -0.003879  0.2489  0.7184
6.52e+09  -0.5463  0.7346  -0.002524  -0.005215  0.02683  -0.008383  0.4733  0.5897
6.521e+09  -0.2613  0.875  0.007052  0.007003  0.03569  -0.003352  0.6521  0.3956
6.522e+09  0.06888  0.9088  0.0003162  0.004178  0.008091  -0.01329  0.7422  0.1434
6.524e+09  0.3749  0.8328  0.001659  0.001008  0.001757  -0.007406  0.7417  -0.1135
6.525e+09  0.6424  0.6505  0.008701  -0.008657  0.005055  -0.02463  0.6548  -0.3705
6.526e+09  0.8409  0.4089  0.006263  -0.01649  -0.01637  -0.0004531  0.4867  -0.5741
6.528e+09  0.9103  0.08836  0.008038  -0.006512  -0.01457  -0.003262  0.2728  -0.6984
6.529e+09  0.9171  -0.225  -0.004614  -0.007028  -0.01254  0.00412  0.01536  -0.7478
6.53e+09  0.7756  -0.5334  -0.008096  -0.01229  -0.009493  -0.007925  -0.2548  -0.6999
6.531e+09  0.5548  -0.763  -0.02328  -0.00808  -0.001095  0.009393  -0.4757  -0.5716
6.532e+09  0.2531  -0.9041  -0.005437  0.004627  -0.002986  0.009454  -0.6481  -0.3833
6.534e+09  -0.08197  -0.9393  -0.008739  -0.005176  -0.01638  0.007481  -0.7398  -0.1464
6.535e+09  -0.4059  -0.8664  0.003347  0.0007884  -0.00807  0.001045  -0.7469  0.1227
6.536e+09  -0.6705  -0.6859  -0.01234  0.01035  0.005181  0.005998  -0.6613  0.3666
6.538e+09  -0.8711  -0.3974  -1.901e-05  0.007314  0.01302  0.0231  -0.4842  0.5661
6.539e+09  -0.9639  -0.07806  0.009228  0.01287  0.01832  0.001624  -0.2603  0.7109
6.54e+09  -0.9125  0.2631  0.002522  0.01832  0.03109  -0.01825  -0.007214  0.7545
6.541e+09  -0.779  0.549  0.009755  0.01447  0.0116  0.0006746  0.2567  0.7086
6.542e+09  -0.5345  0.8068  0.01221  -0.003734  0.007771  0.006747  0.4799  0.5698
6.544e+09  -0.2437  0.937  0.01296  -0.005757  0.003381  -0.01312  0.6503  0.3706
6.545e+09  0.1086  0.9679  0.009459  0.002638  -0.007817  -0.009944  0.7441  0.1254
6.546e+09  0.4257  0.8668  0.0168  -0.01485  0.004578  -0.01512  0.746  -0.1232
6.548e+09  0.6954  0.6705  0.01203  -0.002362  -0.007731  -0.005358  0.6533  -0.3751
6.549e+09  0.8813  0.3901  -0.005235  -0.01104  -0.0008126  -0.0262  0.4843  -0.5852
6.55e+09  0.9704  0.05797  0.005168  -0.008942  -0.0173  -0.002793  0.2534  -0.7055
