# Hz S RI R 50
6.25e+09  -0.1646  0.8759  -0.01031  -0.01149  -0.01544  0.001493  0.1538  0.4768
6.251e+09  0.1573  0.8606  -0.008085  0.0009707  -0.01873  -0.006867  0.3763  0.396
6.252e+09  0.3946  0.7578  -0.008044  0.004355  0.01066  -0.01002  0.5293  0.2342
6.254e+09  0.6595  0.5529  0.00256  0.002717  0.006843  0.02052  0.6133  0.003262
6.255e+09  0.8113  0.3126  -0.01175  -0.003005  -0.01005  -0.02349  0.5891  -0.2303
6.256e+09  0.8483  0.009327  -0.01021  -0.001045  0.01553  0.002319  0.4768  -0.4302
6.258e+09  0.7999  -0.2907  -0.001425  -0.0008174  0.007124  0.01406  0.2771  -0.6088
6.259e+09  0.643  -0.5348  0.005596  0.009198  0.01044  -0.007417  0.0371  -0.6731
6.26e+09  0.4239  -0.7442  0.008998  0.002289  -0.001721  0.02167  -0.2149  -0.6591
6.261e+09  0.1401  -0.8205  0.009238  0.001347  0.004952  -0.0004428  -0.4488  -0.529
6.262e+09  -0.1539  -0.8101  -0.002199  0.003503  -0.01076  0.01139  -0.6201  -0.3553
6.264e+09  -0.4319  -0.7294  0.003541  -0.003233  0.01469  0.001182  -0.7106  -0.09779
6.265e+09  -0.6512  -0.5363  0.005303  -0.004106  0.003115  -0.005083  -0.708  0.1441
6.266e+09  -0.8034  -0.2746  0.005972  -0.009386  -0.02096  -0.006404  -0.6032  0.3985
6.268e+09  -0.8533  0.01132  -0.009536  0.0005547  9.025e-05  0.006269  -0.4261  0.5975
6.269e+09  -0.7834  0.3077  -0.01336  0.001133  -0.002991  0.002208  -0.1974  0.7142
6.27e+09  -0.6087  0.5313  -0.004001  -0.01134  0.0144  -0.005023  0.06045  0.7444
6.271e+09  -0.4059  0.731  -0.005253  -0.004133  -0.005945  0.0058  0.3253  0.6716
6.272e+09  -0.124  0.8203  0.0006859  0.002018  0.006985  -0.01681  0.545  0.5292
6.274e+09  0.1635  0.8374  0.001418  0.01175  0.007574  -0.002188  0.6936  0.301
6.275e+09  0.4433  0.721  0.002802  -0.008355  -0.001911  -0.01207  0.7573  0.03607
6.276e+09  0.6597  0.5153  -0.003847  -0.002515  -0.00259  0.00272  0.7285  -0.2301
6.278e+09  0.7894  0.2667  -0.007703  -0.00572  0.01532  0.00421  0.6155  -0.4684
6.279e+09  0.8354  -0.03191  -0.002331  0.002338  -0.005345  0.01001  0.4064  -0.6469
6.28e+09  0.7739  -0.3249  0.008129  0.001059  -0.01368  0.004141  0.1653  -0.7592
6.281e+09  0.6072  -0.5866  -0.005612  0.01078  -0.004397  0.001392  -0.1053  -0.7748
6.282e+09  0.3745  -0.7509  0.004495  -0.002937  0.01478  0.004506  -0.3689  -0.6807
6.284e+09  0.09744  -0.8345  0.004728  0.0008783  0.01311  -0.01488  -0.5871  -0.5294
6.285e+09  -0.186  -0.8058  0.002414  -0.004183  0.004546  0.02381  -0.7352  -0.2907
6.286e+09  -0.4557  -0.6765  -0.002543  0.01014  0.0206  -0.001267  -0.7913  -0.03097
6.288e+09  -0.6705  -0.4904  -0.001684  -0.004798  0.01265  -0.002658  -0.7568  0.2686
6.289e+09  -0.7859  -0.2313  0.009724  -0.001315  -0.004373  0.007144  -0.6302  0.5039
6.29e+09  -0.8326  0.06382  0.01034  0.0003047  -0.01314  -0.02125  -0.4281  0.7013
6.291e+09  -0.7689  0.3666  0.001686  0.006056  -0.003287  0.007962  -0.1542  0.7938
6.292e+09  -0.5881  0.5905  0.01302  0.004591  0.004866  -0.007978  0.1239  0.8043
6.294e+09  -0.3399  0.757  0.001487  0.001626  -0.002909  -0.003366  0.4052  0.7134
6.295e+09  -0.05865  0.8288  0.004425  -0.002502  -0.0005467  0.0005521  0.6221  0.5381
6.296e+09  0.2261  0.7995  -0.006191  0.01392  0.0007879  -0.007882  0.7778  0.3018
6.298e+09  0.4883  0.6755  -0.002989  -0.006773  0.0003107  -0.004141  0.8306  0.009965
6.299e+09  0.6926  0.4661  -0.004326  -0.0007771  -0.001043  -0.01674  0.7813  -0.2721
6.3e+09  0.8178  0.1829  -0.003108  0.005978  -0.003256  -0.001123  0.6466  -0.5359
6.301e+09  0.8171  -0.1028  0.006939  0.004314  0.0034  -0.01254  0.433  -0.7237
6.302e+09  0.7464  -0.3921  0.001821  -0.0006452  -0.01268  -0.009384  0.1594  -0.8315
6.304e+09  0.5688  -0.6235  0.004974  -0.01183  0.004431  -0.01025  -0.1419  -0.8316
6.305e+09  0.3143  -0.774  0.003307  -0.00644  -0.02101  -0.007699  -0.4048  -0.7502
6.306e+09  0.01897  -0.8297  0.006972  -0.001333  0.004852  0.01123  -0.6485  -0.5577
6.308e+09  -0.2769  -0.7859  0.004192  0.005582  -0.01654  -0.008298  -0.808  -0.2898
6.309e+09  -0.5229  -0.6467  0.001219  -0.003507  0.01242  -0.0009293  -0.8646  -0.01265
6.31e+09  -0.7259  -0.4264  -6.836e-05  0.002379  -0.01631  0.0115  -0.8196  0.2968
6.311e+09  -0.8195  -0.1656  -0.007162  -0.01291  0.004981  0.0001079  -0.6678  0.5547
6.312e+09  -0.8349  0.1331  -0.0003129  -0.002673  2.542e-05  -0.001581  -0.4551  0.7496
6.314e+09  -0.7359  0.4242  -0.001581  0.003724  -0.01274  0.02025  -0.1563  0.8552
6.315e+09  -0.5331  0.6612  -0.01269  0.0007098  0.005402  0.008795  0.1535  0.8672
6.316e+09  -0.2774  0.7999  -0.003715  -0.003474  0.003872  -0.008324  0.4393  0.7741
6.318e+09  0.02048  0.8483  0.001295  -0.006601  0.002428  0.008582  0.6642  0.5765
6.319e+09  0.311  0.7987  0.008864  0.003259  -0.008564  0.0008874  0.8291  0.31
6.32e+09  0.5565  0.6503  0.01051  0.003991  -0.002016  0.006084  0.8854  0.006026
6.321e+09  0.745  0.3855  -0.006756  -0.001361  -0.004958  0.009615  0.8426  -0.2977
6.322e+09  0.8684  0.1056  -0.01239  0.0006705  0.004948  -0.004028  0.6853  -0.5674
6.324e+09  0.8256  -0.1754  0.0086  0.01114  -0.01096  0.002836  0.455  -0.7712
6.325e+09  0.7359  -0.4659  -0.00746  -0.002433  0.008606  -0.006953  0.1566  -0.8762
6.326e+09  0.4996  -0.7012  -0.006888  -0.01187  0.01005  -0.0004814  -0.1402  -0.8829
6.328e+09  0.2508  -0.8321  0.003888  0.00276  -0.004832  -0.003673  -0.4435  -0.7933
6.329e+09  -0.07382  -0.8519  -0.0006466  0.005077  0.01564  -0.002813  -0.6777  -0.5985
6.33e+09  -0.3736  -0.7708  -0.001783  0.00372  0.006055  0.01714  -0.8436  -0.3259
6.331e+09  -0.6076  -0.616  0.003901  -0.004258  -0.008252  -0.002248  -0.9111  -0.02386
6.332e+09  -0.7968  -0.3734  0.0007077  -0.003399  0.01981  0.009821  -0.8591  0.2827
6.334e+09  -0.8745  -0.0394  0.009199  0.006001  0.004744  -0.002413  -0.7119  0.5684
6.335e+09  -0.8407  0.2554  0.007042  0.006501  0.01008  -0.000822  -0.4873  0.776
6.336e+09  -0.7246  0.5148  0.003107  -0.003968  0.01085  -0.01275  -0.1873  0.9025
6.338e+09  -0.4759  0.7341  -0.001268  0.004113  0.001354  0.01786  0.1233  0.9097
6.339e+09  -0.1834  0.8607  1.33e-05  0.003933  -0.004026  -0.00324  0.4354  0.822
6.34e+09  0.1112  0.8761  0.008072  -0.01679  5.73e-05  0.004168  0.6926  0.6301
6.341e+09  0.4204  0.7776  -0.002619  0.0008079  0.001558  -0.001649  0.8511  0.3539
6.342e+09  0.6602  0.5952  -0.005766  0.01065  0.00121  -0.005572  0.925  0.04018
6.344e+09  0.8175  0.3045  0.003217  -0.004615  0.008385  0.003741  0.8973  -0.2783
6.345e+09  0.8838  0.01031  0.003038  0.01201  -0.001986  -0.006523  0.7405  -0.5665
6.346e+09  0.8314  -0.3091  0.01125  -0.005794  -0.007784  0.005802  0.5106  -0.7864
6.348e+09  0.6728  -0.5839  -0.00336  -0.000126  0.009093  -0.0114  0.2187  -0.9097
6.349e+09  0.4311  -0.7574  -0.006127  -0.003365  0.01757  -0.001592  -0.1167  -0.937
6.35e+09  0.1406  -0.8733  -0.007144  0.009961  0.01183  0.01469  -0.4241  -0.8432
6.351e+09  -0.1842  -0.8743  -0.002693  0.005467  -0.004798  0.01259  -0.6822  -0.6474
6.352e+09  -0.4806  -0.7428  0.002609  -0.004385  -0.0002538  -0.004233  -0.8628  -0.3836
6.354e+09  -0.7039  -0.5415  0.008701  0.0008762  -0.001936  0.001368  -0.9361  -0.05976
6.355e+09  -0.85  -0.2567  -0.003153  -0.007117  0.003549  -0.008721  -0.9055  0.2681
6.356e+09  -0.8827  0.04437  0.001527  -0.007004  -0.00967  0.0125  -0.7807  0.5559
6.358e+09  -0.808  0.3609  -0.0043  0.006661  0.00258  0.003996  -0.5273  0.7905
6.359e+09  -0.6573  0.628  0.01004  0.004641  -0.009145  -0.0007081  -0.2351  0.9174
6.36e+09  -0.4063  0.7967  0.0009734  -0.006217  -0.01025  -0.001626  0.09512  0.9445
6.361e+09  -0.08625  0.8853  0.008549  -0.005354  -0.01311  0.004186  0.4258  0.872
6.362e+09  0.2297  0.8675  0.009554  -0.002959  0.01886  -0.007683  0.6823  0.6601
6.364e+09  0.5392  0.7158  -0.001542  -0.001024  0.005689  -0.008184  0.8637  0.3966
6.365e+09  0.7352  0.4926  0.0125  0.01445  -0.01597  0.003613  0.9522  0.07469
6.366e+09  0.8762  0.2095  -0.0007575  -0.01811  -0.0007817  0.001276  0.9139  -0.2576
6.368e+09  0.8929  -0.1038  -0.001925  0.00673  0.001998  0.0008626  0.7697  -0.5461
6.369e+09  0.7955  -0.3928  -0.006848  0.004454  0.004216  -0.008159  0.5517  -0.7914
6.37e+09  0.6109  -0.6591  0.002759  -0.002122  -0.0005262  -0.004634  0.2384  -0.9226
6.371e+09  0.354  -0.8178  0.003517  0.0003098  -0.008848  0.01064  -0.08051  -0.9385
6.372e+09  0.04241  -0.8879  -0.003501  0.001148  0.001614  -0.005396  -0.3958  -0.847
6.374e+09  -0.2756  -0.8621  -0.007544  0.004997  -0.004002  0.0007002  -0.6775  -0.6695
6.375e+09  -0.5617  -0.6957  0.0075  0.0007073  -9.731e-05  -0.006225  -0.8611  -0.404
6.376e+09  -0.7619  -0.4699  0.003733  -0.008314  0.00698  -0.009125  -0.936  -0.1043
6.378e+09  -0.886  -0.1594  0.00631  -0.01145  -0.007528  -0.00284  -0.9148  0.2213
6.379e+09  -0.8842  0.1337  0.003118  -0.002013  0.00846  -0.01101  -0.7756  0.5199
6.38e+09  -0.7765  0.4411  0.007505  0.003029  0.000596  0.004992  -0.5571  0.7693
6.381e+09  -0.5807  0.691  -0.0008355  -0.0002442  -0.007023  -0.01076  -0.2547  0.8932
6.382e+09  -0.3213  0.8354  -0.009736  0.004091  -0.006024  0.002789  0.0528  0.9314
6.384e+09  0.001131  0.9016  -0.004598  0.00837  -0.00611  -0.001541  0.3763  0.8671
6.385e+09  0.3106  0.8327  0.001354  0.008098  -0.007071  -0.01012  0.6379  0.6854
6.386e+09  0.5663  0.686  0.002366  0.01163  0.004649  0.01465  0.8521  0.4209
6.388e+09  0.7827  0.4469  -0.00494  -0.002225  -0.001247  -0.004846  0.9175  0.12
6.389e+09  0.87  0.1283  -0.004849  -0.006102  0.003662  0.002316  0.9167  -0.2035
6.39e+09  0.8856  -0.1684  0.00635  -0.003338  -0.01701  0.002848  0.7888  -0.5072
6.391e+09  0.7596  -0.4651  0.002578  -0.01279  -0.008518  0.007023  0.5702  -0.7452
6.392e+09  0.5492  -0.6861  -0.004203  0.003006  -0.007787  -0.007574  0.2892  -0.8796
6.394e+09  0.2896  -0.8637  0.005298  0.01183  -0.007608  -0.001294  -0.0306  -0.9344
6.395e+09  -0.02923  -0.8924  -0.003229  -0.008916  -0.0006134  -0.01286  -0.3362  -0.8786
6.396e+09  -0.3414  -0.8352  -0.001956  -0.001597  0.01145  0.003223  -0.6111  -0.7058
6.398e+09  -0.6169  -0.658  0.004157  0.005515  -0.005311  0.008977  -0.796  -0.4364
6.399e+09  -0.7908  -0.4008  0.00396  -0.01014  -0.0007265  -0.002881  -0.9125  -0.1393
6.4e+09  -0.8771  -0.1188  0.00939  -0.005348  0.004259  0.001354  -0.911  0.1694
6.401e+09  -0.8614  0.1886  0.005444  -0.009027  0.001148  -0.002329  -0.8054  0.4698
6.402e+09  -0.7366  0.4759  -0.005493  0.00695  -0.002348  0.005078  -0.5969  0.7228
6.404e+09  -0.5272  0.7151  -0.002801  -0.009322  -0.01429  0.01033  -0.3197  0.8756
6.405e+09  -0.2514  0.8412  0.008222  -0.01057  0.00411  0.009577  0.01267  0.9222
6.406e+09  0.04993  0.8727  0.0007205  -0.003332  0.001716  -0.005189  0.3125  0.86
6.408e+09  0.3588  0.8017  0.0008349  -0.001407  -0.009583  0.001834  0.591  0.7086
6.409e+09  0.6009  0.6538  -0.002362  0.01625  0.01141  0.004906  0.7997  0.4507
6.41e+09  0.7855  0.3992  -0.006433  0.006096  0.0009703  0.002197  0.8937  0.1635
6.411e+09  0.882  0.1073  0.001771  -0.006026  -0.007637  0.00324  0.885  -0.1492
6.412e+09  0.8595  -0.2135  -0.00682  0.001323  -0.00674  0.003027  0.7907  -0.456
6.414e+09  0.7458  -0.4889  0.001645  0.009718  -0.007524  -0.004942  0.5989  -0.6814
6.415e+09  0.5355  -0.7139  -0.01306  -0.01236  0.01406  0.01461  0.3252  -0.8442
6.416e+09  0.2449  -0.8352  -0.01324  0.01147  -0.008845  0.002594  0.03026  -0.9136
6.418e+09  -0.0738  -0.8797  -0.01148  -0.001506  -0.01599  0.004036  -0.2741  -0.8626
6.419e+09  -0.3775  -0.8061  -0.0034  -0.003099  -0.00321  -0.01564  -0.5521  -0.6965
6.42e+09  -0.6214  -0.6266  -0.00772  0.002038  0.0008433  0.004971  -0.7746  -0.4599
6.421e+09  -0.8128  -0.3752  0.001927  -0.002007  0.001598  0.006964  -0.867  -0.1891
6.422e+09  -0.8849  -0.08002  0.003335  -0.003905  -0.007274  -0.007936  -0.8862  0.1102
6.424e+09  -0.864  0.2245  0.007696  0.01348  -0.002532  -0.005532  -0.782  0.4209
6.425e+09  -0.7373  0.5188  0.001343  0.01116  0.0004927  0.005517  -0.6052  0.6515
6.426e+09  -0.5227  0.7402  -0.01183  0.003119  0.0001032  0.006832  -0.3494  0.8146
6.428e+09  -0.2313  0.8634  -0.002257  0.003084  -0.00382  0.0004071  -0.05193  0.8762
6.429e+09  0.0732  0.8959  0.005533  0.001059  -0.006731  0.003803  0.2502  0.8364
6.43e+09  0.3813  0.8136  0.003655  -0.006192  -0.01426  -0.004491  0.5254  0.6955
6.431e+09  0.6448  0.6294  0.01133  -0.007943  -0.00559  -0.009389  0.7204  0.4869
6.432e+09  0.8276  0.3729  -0.001906  0.008429  0.001069  -0.007436  0.8464  0.19
6.434e+09  0.8777  0.06979  -0.002548  -0.002313  0.006471  0.009234  0.8586  -0.09055
6.435e+09  0.8617  -0.2364  0.01429  0.00251  0.01042  0.005453  0.7693  -0.3745
6.436e+09  0.7199  -0.521  0.01358  0.0005468  -0.00372  0.01063  0.5838  -0.6071
6.438e+09  0.4778  -0.7449  -0.004278  0.01044  0.01852  -0.007546  0.3512  -0.7954
6.439e+09  0.2085  -0.8647  0.01218  -0.01298  0.01794  0.008432  0.06267  -0.8549
6.44e+09  -0.1059  -0.8968  0.01645  -0.004734  -0.006405  -0.002743  -0.2419  -0.8437
6.441e+09  -0.4104  -0.801  0.01279  -0.01147  0.003093  0.01518  -0.4954  -0.6918
6.442e+09  -0.6486  -0.6078  -0.004838  -0.01273  0.0005057  -0.002231  -0.7054  -0.4842
6.444e+09  -0.833  -0.3533  0.01565  -0.006932  -0.00333  0.0008412  -0.8142  -0.2167
6.445e+09  -0.8969  -0.04323  0.009246  0.00197  -0.001195  0.006666  -0.8385  0.06724
6.446e+09  -0.8686  0.2568  0.008536  0.008294  -0.005466  -0.01112  -0.7634  0.3613
6.448e+09  -0.7175  0.5577  -0.007164  0.00802  -0.01434  0.004791  -0.587  0.5934
6.449e+09  -0.4941  0.7803  -0.0005788  0.001825  0.003496  -0.008168  -0.3499  0.7709
6.45e+09  -0.1992  0.8976  0.0004018  -0.004281  0.001884  -0.002645  -0.07333  0.8323
6.451e+09  0.1204  0.9053  0.0001005  0.00415  0.003522  0.01651  0.2211  0.8172
6.452e+09  0.4224  0.8014  0.007416  -0.01287  -0.0101  -0.0008484  0.4831  0.6782
6.454e+09  0.6722  0.6167  0.00124  0.005485  -0.0121  0.01258  0.6699  0.4746
6.455e+09  0.8393  0.3336  -0.0004243  0.000938  -0.01396  0.01147  0.825  0.191
6.456e+09  0.9251  0.02638  -0.006527  3.444e-05  0.00618  0.01483  0.8256  -0.06861
6.458e+09  0.8666  -0.294  0.001493  0.003087  -0.01653  0.006461  0.744  -0.3495
6.459e+09  0.6888  -0.5761  -0.004162  -0.005332  0.002085  0.004071  0.5874  -0.5997
6.46e+09  0.4751  -0.7781  -0.0024  0.0164  -0.003163  -0.007768  0.3463  -0.7505
6.461e+09  0.1675  -0.8897  -0.008317  -0.01011  0.000874  -0.01605  0.0787  -0.8156
6.462e+09  -0.1687  -0.888  0.008153  0.0175  -0.008442  0.001404  -0.2177  -0.7862
6.464e+09  -0.4406  -0.7863  0.002851  -0.005282  0.008788  0.004036  -0.4754  -0.6597
6.465e+09  -0.7  -0.5827  0.005212  0.007543  -0.00613  -0.0004212  -0.6686  -0.4701
6.466e+09  -0.8754  -0.3256  0.01312  -0.004171  0.003907  0.00354  -0.7813  -0.1999
6.468e+09  -0.9189  -0.006855  -0.002586  -0.006636  -0.002786  0.0006968  -0.7995  0.07786
6.469e+09  -0.865  0.3153  -0.01067  -0.006694  0.00462  -0.009683  -0.7257  0.3451
6.47e+09  -0.7104  0.5898  0.00392  -0.0001459  -0.00725  0.008808  -0.5566  0.5658
6.471e+09  -0.4506  0.7965  0.004763  0.009586  -0.004308  -0.004446  -0.3277  0.7284
6.472e+09  -0.1359  0.9041  -0.002718  -0.01406  -0.006612  0.01367  -0.05766  0.7964
6.474e+09  0.1635  0.9111  0.01127  -0.009303  0.0007847  -0.001853  0.2131  0.7522
6.475e+09  0.4802  0.8145  0.004774  -0.009905  -0.00126  0.006986  0.4617  0.6528
6.476e+09  0.7364  0.5827  0.01233  -0.004754  -0.013  0.01674  0.6536  0.4402
6.478e+09  0.899  0.2889  0.008398  -0.01193  0.01285  -0.01206  0.7526  0.2043
6.479e+09  0.9395  -0.04565  -0.004608  0.009556  0.00832  -0.002137  0.7985  -0.08294
6.48e+09  0.8502  -0.3561  0.01025  -0.008589  -0.005302  -0.0004442  0.6988  -0.3431
6.481e+09  0.6728  -0.6418  0.002404  -0.003855  0.006894  9.076e-06  0.5473  -0.5658
6.482e+09  0.42  -0.8201  -0.009303  0.002044  -0.001543  -0.005303  0.3199  -0.7209
6.484e+09  0.1134  -0.9294  -0.01082  0.01571  0.0229  0.002858  0.06807  -0.7713
6.485e+09  -0.2116  -0.9076  -0.02044  -0.006393  0.01185  -0.00619  -0.225  -0.7371
6.486e+09  -0.5125  -0.776  0.01139  0.008452  -0.0001012  0.001112  -0.4502  -0.6216
6.488e+09  -0.7555  -0.5533  -0.01562  -0.01487  -0.001434  -0.01309  -0.6416  -0.4365
6.489e+09  -0.9277  -0.2566  0.00158  0.00571  -0.01188  -0.005089  -0.762  -0.1763
6.49e+09  -0.9403  0.07925  0.007902  0.006268  -0.001791  0.008186  -0.7722  0.09795
6.491e+09  -0.8645  0.3993  -0.01065  -0.002308  0.003874  0.01028  -0.6968  0.3352
6.492e+09  -0.6735  0.6776  -0.01329  0.003485  0.02027  0.01072  -0.5335  0.5544
6.494e+09  -0.3846  0.8631  0.007142  -0.005044  0.007013  -0.006119  -0.2976  0.7053
6.495e+09  -0.05058  0.9623  -0.005526  0.01042  0.002058  0.01145  -0.03482  0.7745
6.496e+09  0.2699  0.9172  0.007909  -0.003511  0.02071  0.003401  0.2244  0.738
6.498e+09  0.5752  0.7652  0.00739  -0.009083  -0.01205  0.003012  0.4731  0.6169
6.499e+09  0.7912  0.5188  -0.004543  -0.003873  -0.004648  -0.002399  0.6473  0.4122
6.5e+09  0.9308  0.1957  0.004347  0.0005161  0.01358  0.001663  0.7646  0.1623
6.501e+09  0.9452  -0.1314  0.002137  0.001168  0.01611  0.001146  0.7587  -0.1048
6.502e+09  0.8298  -0.4406  0.001174  -0.00151  0.003354  0.003981  0.6739  -0.349
6.504e+09  0.6287  -0.7184  0.007665  0.006703  0.006921  0.00774  0.5092  -0.5675
6.505e+09  0.3405  -0.9036  0.003973  0.003929  -0.00896  -0.005021  0.2837  -0.7151
6.506e+09  0.02448  -0.9499  -0.009669  0.01061  -0.006821  -0.002929  0.01014  -0.773
6.508e+09  -0.3249  -0.9078  -0.005951  0.00327  0.002286  0.002419  -0.255  -0.7113
6.509e+09  -0.6164  -0.7539  -0.009392  -0.00303  -0.002446  -0.005265  -0.485  -0.5922
6.51e+09  -0.8395  -0.4722  -0.005836  0.0002709  -0.003098  0.003319  -0.661  -0.3739
6.511e+09  -0.9427  -0.1622  -0.0007735  0.001926  -0.007054  0.0007224  -0.7457  -0.1408
6.512e+09  -0.9579  0.2095  0.002971  0.01052  0.01031  -0.007943  -0.739  0.1266
6.514e+09  -0.8186  0.5176  -0.009228  0.0009266  -0.004209  0.009503  -0.6526  0.382
6.515e+09  -0.5923  0.772  -0.006808  0.001272  0.005462  0.003599  -0.4753  0.5883
6.516e+09  -0.3045  0.9181  0.002299  -0.001855  0.002069  0.00303  -0.2476  0.7119
6.518e+09  0.06981  0.9629  0.004729  -0.0128  0.01406  -0.004487  0.009715  0.7487
6.519e+09  0.3816  0.8752  -0.006754  -0.004891  -0.003016  -0.007699  0.2688  0.6962
6.52e+09  0.6795  0.6946  -0.007387  0.009651  -0.01683  -0.001327  0.4977  0.5635
6.521e+09  0.8814  0.4148  0.003056  0.004434  -0.004069  0.001686  0.6547  0.3517
6.522e+09  0.9574  0.0737  -0.002279  -0.000888  0.008536  0.001599  0.7329  0.1048
6.524e+09  0.9263  -0.2565  0.01159  0.003793  -0.00219  -0.005384  0.7211  -0.1814
6.525e+09  0.7667  -0.5749  0.005269  0.001374  0.00626  -0.006581  0.6099  -0.3976
6.526e+09  0.5251  -0.8316  -0.002145  0.0005667  -0.005821  -0.001944  0.4152  -0.5808
6.528e+09  0.2028  -0.9455  0.001748  -0.005178  0.0008991  -0.01069  0.1909  -0.6799
6.529e+09  -0.1345  -0.9532  -0.009115  -0.001087  0.001774  0.006165  -0.05447  -0.7085
6.53e+09  -0.4689  -0.8492  0.001757  0.002461  0.001197  0.002111  -0.2877  -0.6334
6.531e+09  -0.7313  -0.6377  -0.0007719  -0.00544  -0.01675  0.02154  -0.4743  -0.4789
6.532e+09  -0.9152  -0.3434  0.003748  -0.0118  0.004435  0.008448  -0.5934  -0.2831
6.534e+09  -0.9695  -0.0134  0.007782  0.006997  0.001007  0.002169  -0.6453  -0.08789
6.535e+09  -0.8968  0.3407  -0.0025  -0.001988  0.006891  0.001569  -0.6212  0.1245
6.536e+09  -0.7156  0.6441  -0.004339  -0.01137  0.00812  0.005872  -0.5588  0.2979
6.538e+09  -0.4509  0.8577  -0.01029  0.0003085  -0.008031  -0.006284  -0.4463  0.4859
6.539e+09  -0.1281  0.944  0.001804  0.004996  -0.01238  -0.001406  -0.263  0.6114
6.54e+09  0.2099  0.9235  0.006443  -0.005872  -0.007796  0.008034  -0.06077  0.6782
6.541e+09  0.5231  0.7934  0.0004086  0.003716  -0.01089  0.0009227  0.1947  0.6695
6.542e+09  0.7667  0.5691  -0.009481  0.005668  0.009316  -0.009821  0.4226  0.5659
