# Hz S RI R 50
6.25e+09  0.7819  -0.256  -0.0005974  0.005959  -0.01359  0.006458  0.1557  0.4752
6.251e+09  0.6342  -0.5234  -0.005149  -0.001554  -0.001157  -0.001658  0.3761  0.4119
6.252e+09  0.414  -0.7074  0.007586  -0.003516  -0.006002  -0.000369  0.5271  0.2442
6.254e+09  0.1528  -0.8182  -0.001254  0.007137  0.00797  -0.01594  0.6144  0.01234
6.255e+09  -0.1362  -0.82  -0.006802  0.006328  -0.004691  0.006788  0.5901  -0.2287
6.256e+09  -0.4031  -0.7079  -0.009812  0.003594  0.002586  -0.01513  0.4774  -0.4568
6.258e+09  -0.6211  -0.5282  -0.0006401  0.003064  0.01535  -0.008052  0.286  -0.6099
6.259e+09  -0.7851  -0.2866  -0.007805  0.0007668  -0.008078  -0.00375  0.04452  -0.6883
6.26e+09  -0.8082  0.007545  0.007796  -0.007731  -0.01688  -0.005248  -0.2137  -0.6648
6.261e+09  -0.7495  0.2737  0.009646  0.005212  -0.01634  -0.006507  -0.4497  -0.5445
6.262e+09  -0.6155  0.5341  -0.008953  0.0005418  -0.01795  -0.006326  -0.6164  -0.3393
6.264e+09  -0.4008  0.7017  0.00288  0.0003071  -0.02534  0.01335  -0.7128  -0.1064
6.265e+09  -0.1253  0.7963  -0.005304  0.00189  -0.004442  0.01304  -0.7095  0.1507
6.266e+09  0.1556  0.7913  -0.002609  0.001381  -0.01738  -0.01163  -0.6009  0.4032
6.268e+09  0.4128  0.7123  0.001761  0.0005503  0.0007249  0.002322  -0.4409  0.6032
6.269e+09  0.624  0.5209  -0.004828  0.00418  -0.007097  5.965e-05  -0.1909  0.7148
6.27e+09  0.7726  0.2529  0.001409  0.006451  0.009872  0.007196  0.07261  0.7362
6.271e+09  0.8208  -0.01904  -0.003415  -0.0001454  0.002589  -0.01363  0.3266  0.6728
6.272e+09  0.7405  -0.2795  0.001741  -0.002873  0.001692  -0.008981  0.5396  0.5145
6.274e+09  0.5991  -0.5349  0.0005171  0.006898  0.007862  -0.004969  0.6925  0.3054
6.275e+09  0.3798  -0.7009  -0.004422  0.001273  0.01502  0.006476  0.7672  0.0446
6.276e+09  0.121  -0.806  -0.003185  0.00641  0.01169  -0.01762  0.7307  -0.2277
6.278e+09  -0.1724  -0.7985  -0.001342  0.003709  6.324e-05  0.003242  0.6043  -0.4687
6.279e+09  -0.4342  -0.6966  -0.0005161  -0.00513  0.007922  0.01275  0.411  -0.6595
6.28e+09  -0.6378  -0.489  0.003928  -0.003387  -0.001431  0.01388  0.1521  -0.7546
6.281e+09  -0.7708  -0.2437  0.004553  0.001329  -0.005298  0.005544  -0.1112  -0.778
6.282e+09  -0.8051  0.03122  0.002648  0.003637  -0.0007446  -0.0006998  -0.3725  -0.6944
6.284e+09  -0.7347  0.3258  -0.004355  0.0003617  -0.02152  -0.00084  -0.5901  -0.5181
6.285e+09  -0.6073  0.5559  -0.001817  0.0005297  -0.01421  -0.006011  -0.7391  -0.2945
6.286e+09  -0.3797  0.7222  0.001153  0.002231  0.0009759  0.00162  -0.7856  -0.02214
6.288e+09  -0.1107  0.8275  0.007092  -0.001103  -0.005393  -0.004361  -0.7564  0.2561
6.289e+09  0.1884  0.8109  0.008785  0.002215  0.01092  0.008107  -0.63  0.509
6.29e+09  0.4647  0.6816  -0.0004509  0.002274  -0.01134  -0.005308  -0.4124  0.6899
6.291e+09  0.6597  0.4841  0.0012  -0.005724  0.002968  -0.01006  -0.1556  0.7902
6.292e+09  0.7803  0.2327  0.00354  -0.006254  0.002446  -0.009477  0.1327  0.8121
6.294e+09  0.8201  -0.05735  0.002794  -0.003264  0.006858  0.005813  0.398  0.7152
6.295e+09  0.7555  -0.3328  -0.001274  0.002796  -0.006426  -0.01768  0.6242  0.535
6.296e+09  0.5966  -0.5761  -0.007531  0.003499  0.004733  -0.01048  0.7855  0.2897
6.298e+09  0.3645  -0.7386  -0.01923  0.002162  0.004477  -0.002586  0.8335  0.001342
6.299e+09  0.09568  -0.8095  0.001202  -0.00376  -0.01332  0.01073  0.7884  -0.2751
6.3e+09  -0.2029  -0.8094  0.0003344  -0.004253  0.006267  -0.003498  0.6439  -0.5414
6.301e+09  -0.4556  -0.6793  0.005675  0.0009783  0.03374  -0.00791  0.4319  -0.7365
6.302e+09  -0.6651  -0.4686  0.008114  -0.002378  -0.003793  0.0005551  0.1554  -0.8323
6.304e+09  -0.8041  -0.2171  -0.001077  -0.001985  -0.008269  -0.005105  -0.1435  -0.8381
6.305e+09  -0.8313  0.06376  0.0002165  -0.00288  -0.01288  -0.001772  -0.4275  -0.7383
6.306e+09  -0.7671  0.3392  0.0007757  -0.005123  -0.007501  0.003955  -0.6502  -0.5456
6.308e+09  -0.5869  0.6013  0.01076  0.002756  -0.009332  0.01153  -0.7897  -0.3028
6.309e+09  -0.362  0.7586  -8.578e-05  0.003052  -0.003928  -0.00277  -0.8634  -0.005931
6.31e+09  -0.0819  0.8195  0.004786  0.002411  -0.01231  -0.007386  -0.8011  0.2885
6.311e+09  0.2241  0.7854  -0.002275  0.005613  -0.02324  0.001645  -0.6803  0.5663
6.312e+09  0.4878  0.68  0.0004258  0.0006839  0.01101  -0.000747  -0.4408  0.7567
6.314e+09  0.6809  0.4915  -0.002163  0.0092  0.003155  -0.01054  -0.155  0.8499
6.315e+09  0.8212  0.2266  -0.009139  -0.01164  -0.005  0.008342  0.1412  0.8815
6.316e+09  0.838  -0.07235  -0.004854  0.001081  0.00314  -0.009931  0.4331  0.7603
6.318e+09  0.7632  -0.3479  0.001454  0.006701  -0.008126  0.007767  0.6779  0.5754
6.319e+09  0.5955  -0.5974  -0.002677  0.00225  0.0105  -0.002347  0.8303  0.3152
6.32e+09  0.3614  -0.762  0.002298  0.000403  -0.003673  0.0001861  0.8812  0.01338
6.321e+09  0.07551  -0.8406  0.004376  -0.002148  -0.008306  -0.0133  0.8417  -0.3046
6.322e+09  -0.2124  -0.8143  0.008472  0.004076  -0.0005366  -0.001627  0.6903  -0.5651
6.324e+09  -0.4814  -0.6896  -0.001006  -0.003349  0.008914  -0.005547  0.4492  -0.7664
6.325e+09  -0.6977  -0.4864  -0.002621  -0.006329  0.006859  0.004682  0.1777  -0.8935
6.326e+09  -0.8192  -0.2148  0.003639  0.001202  0.002195  0.003157  -0.1405  -0.8882
6.328e+09  -0.8551  0.08601  -0.001207  0.009149  0.01362  0.006245  -0.4336  -0.789
6.329e+09  -0.7748  0.3629  -0.004261  0.002998  0.002717  -0.002295  -0.673  -0.5893
6.33e+09  -0.5941  0.6097  -0.001999  0.009154  -0.0006554  -0.006555  -0.854  -0.3243
6.331e+09  -0.3637  0.8008  -0.002774  0.007222  -0.006699  -0.01662  -0.9112  -0.02342
6.332e+09  -0.07313  0.8678  0.005746  -0.004042  0.01003  -0.006604  -0.8754  0.3028
6.334e+09  0.2285  0.8249  -0.004495  0.006809  0.005458  -0.004086  -0.7233  0.5735
6.335e+09  0.5002  0.6894  0.005616  0.00307  -0.004076  0.008758  -0.4794  0.7729
6.336e+09  0.7137  0.4583  0.002377  0.001209  0.01053  0.01536  -0.1815  0.8973
6.338e+09  0.8164  0.2208  -0.002935  -0.003025  -0.003274  -0.006201  0.1354  0.9154
6.339e+09  0.8516  -0.07518  -0.002206  0.001381  -0.0004668  0.008061  0.4299  0.8082
6.34e+09  0.7712  -0.3833  -0.004215  -0.007405  -0.01689  0.003987  0.6886  0.6265
6.341e+09  0.5988  -0.6216  -0.002773  -0.0005458  -0.01067  -0.0005579  0.8576  0.36
6.342e+09  0.3505  -0.7802  0.005362  -0.004546  0.002216  -9.398e-05  0.9293  0.04014
6.344e+09  0.0479  -0.8617  -0.008857  -0.01177  0.007877  0.006251  0.8892  -0.2819
6.345e+09  -0.2425  -0.8357  0.005059  0.006791  0.003921  0.01661  0.7362  -0.5695
6.346e+09  -0.5123  -0.693  -0.0003231  0.008203  -0.00864  -0.00841  0.4991  -0.7903
6.348e+09  -0.7197  -0.4827  0.001654  -0.007169  -0.008935  -0.004542  0.2133  -0.9067
6.349e+09  -0.8389  -0.1903  -0.004636  -0.002007  0.005702  0.00331  -0.1118  -0.9323
6.35e+09  -0.8697  0.08245  0.00506  0.001739  0.004629  0.004543  -0.427  -0.8371
6.351e+09  -0.787  0.4021  -0.009283  0.00763  0.00787  -6.042e-06  -0.6891  -0.6412
6.352e+09  -0.5919  0.6261  0.006645  -0.009797  0.008282  0.00677  -0.8686  -0.3716
6.354e+09  -0.3385  0.7968  -0.003709  -0.001002  -0.002583  0.01403  -0.9494  -0.06708
6.355e+09  -0.0729  0.874  0.003235  -0.005986  -0.002614  -0.0005249  -0.907  0.264
6.356e+09  0.2399  0.8402  0.002425  0.001365  0.003591  -0.01106  -0.7515  0.5575
6.358e+09  0.5151  0.7047  -0.007663  0.003225  -0.005543  -0.009097  -0.5135  0.7774
6.359e+09  0.7283  0.4818  -0.007821  -0.004456  -0.0004793  -0.006534  -0.2316  0.9175
6.36e+09  0.8424  0.1872  0.01248  0.01326  0.01202  -0.001587  0.08393  0.938
6.361e+09  0.8617  -0.1127  -0.002063  -0.01064  0.01019  0.002738  0.4264  0.8509
6.362e+09  0.7641  -0.4075  0.008439  -0.0008585  -0.01268  0.007732  0.6777  0.674
6.364e+09  0.5949  -0.6429  0.01268  -0.002449  0.01372  -0.001364  0.8655  0.3955
6.365e+09  0.348  -0.8027  0.007656  0.006706  -0.008107  -0.002172  0.9402  0.07493
6.366e+09  0.03636  -0.8713  -0.003289  -0.01002  -0.002304  0.01058  0.9243  -0.2468
6.368e+09  -0.2514  -0.8313  0.006878  0.007107  -0.006986  -0.01154  0.7741  -0.5436
6.369e+09  -0.5305  -0.6998  0.01068  0.001196  -0.008287  0.007178  0.5406  -0.7891
6.37e+09  -0.7413  -0.4728  0.001122  -0.004865  -0.00947  0.001572  0.235  -0.9261
6.371e+09  -0.8337  -0.2035  0.004884  -0.0007382  0.002387  0.005714  -0.07109  -0.9392
6.372e+09  -0.8833  0.1095  -0.002394  -0.01063  -0.008689  0.01112  -0.392  -0.8598
6.374e+09  -0.76  0.4047  0.0002384  0.000576  0.002429  0.002465  -0.6546  -0.6815
6.375e+09  -0.5831  0.6311  -0.004103  -0.005587  -1.297e-06  -0.005104  -0.8616  -0.4141
6.376e+09  -0.3364  0.8046  0.006513  0.003059  -0.00192  0.006636  -0.9436  -0.08048
6.378e+09  -0.04242  0.8701  0.01282  -0.003019  -0.00209  -0.01507  -0.9128  0.2319
6.379e+09  0.2513  0.8316  0.01125  0.006811  0.009222  0.01262  -0.7957  0.5322
6.38e+09  0.5241  0.6945  0.001221  0.0006818  -0.0143  -0.001256  -0.5736  0.776
6.381e+09  0.7277  0.4677  0.009289  -0.003823  -0.00341  -0.01462  -0.2552  0.9011
6.382e+09  0.8475  0.1743  0.008799  0.005928  0.01343  -0.0003695  0.06734  0.936
6.384e+09  0.86  -0.114  -0.005862  0.002188  0.01006  0.008634  0.3721  0.8698
6.385e+09  0.7672  -0.3924  -0.0015  0.009421  0.005306  0.003492  0.6512  0.692
6.386e+09  0.589  -0.6454  0.01809  0.01428  -0.004436  -0.005195  0.8351  0.4223
6.388e+09  0.3356  -0.8189  -0.001324  0.0177  0.005886  -0.005775  0.9309  0.1172
6.389e+09  0.05402  -0.8775  -0.01175  -0.002767  -0.005585  -0.01154  0.9128  -0.2008
6.39e+09  -0.2725  -0.8243  -0.004634  -0.002976  -0.002469  -0.000208  0.7849  -0.5211
6.391e+09  -0.5478  -0.7047  0.0005513  0.00827  -0.003637  0.005069  0.5628  -0.7434
6.392e+09  -0.732  -0.4696  0.00935  0.001382  0.003661  0.003216  0.2817  -0.8859
6.394e+09  -0.8532  -0.1927  -0.006616  0.006205  0.01073  0.008213  -0.03395  -0.9229
6.395e+09  -0.8695  0.1177  -0.008515  0.003333  0.008871  -0.003439  -0.349  -0.8539
6.396e+09  -0.7786  0.4233  -0.004463  0.007864  0.004083  -0.009336  -0.6073  -0.701
6.398e+09  -0.574  0.6373  -0.004998  0.008159  -0.003852  0.007555  -0.8202  -0.438
6.399e+09  -0.3454  0.8065  -0.00484  0.009556  0.006593  -0.004051  -0.9134  -0.1446
6.4e+09  -0.02499  0.8958  0.003952  0.01781  5.932e-05  0.008319  -0.8761  0.1631
6.401e+09  0.2714  0.8355  -0.005433  0.01524  -0.003205  0.003759  -0.7893  0.4759
6.402e+09  0.5457  0.6765  0.0001884  -0.01781  -0.01048  -0.002736  -0.5934  0.7071
6.404e+09  0.7726  0.4513  0.006045  0.004669  0.009384  -0.009475  -0.3145  0.8665
6.405e+09  0.8538  0.1702  -0.0004586  0.005279  0.001761  -8.646e-05  -0.006845  0.9193
6.406e+09  0.8791  -0.1317  0.009797  -0.004081  -0.0004876  0.008825  0.3083  0.889
6.408e+09  0.7714  -0.4183  0.009138  0.01291  0.001067  -0.002439  0.582  0.6983
6.409e+09  0.5824  -0.665  0.005377  0.004841  -2.157e-05  0.002702  0.7718  0.455
6.41e+09  0.3226  -0.8466  -0.001911  -0.004451  -0.005606  -0.005753  0.9041  0.1691
6.411e+09  0.001519  -0.887  -0.002541  0.004917  -0.005832  0.00127  0.9063  -0.1609
6.412e+09  -0.3093  -0.8446  -0.0005459  -0.01132  -0.00156  -0.01008  0.7839  -0.4354
6.414e+09  -0.5628  -0.6779  -0.00242  -0.002939  -0.01875  -0.01143  0.58  -0.6735
6.415e+09  -0.7651  -0.4482  0.006475  -0.003009  -0.006986  0.01245  0.332  -0.8461
6.416e+09  -0.8769  -0.1528  -0.008712  -0.008625  -0.006396  0.005434  0.01965  -0.8907
6.418e+09  -0.8843  0.165  -0.004368  -0.01964  7.246e-05  -0.009294  -0.2877  -0.8509
6.419e+09  -0.7591  0.4435  -0.02081  0.001226  0.01379  0.004339  -0.5412  -0.7023
6.42e+09  -0.5777  0.6833  -0.01266  0.001792  0.01613  0.008392  -0.7511  -0.4802
6.421e+09  -0.2815  0.849  -0.008417  0.001961  -0.002074  0.01551  -0.8573  -0.1898
6.422e+09  0.02649  0.8902  0.006066  0.003727  0.008023  0.0128  -0.8904  0.1328
6.424e+09  0.3274  0.8419  -0.004085  -0.01274  0.01346  0.001857  -0.7912  0.401
6.425e+09  0.594  0.6741  0.001702  -0.0002128  -0.01049  -0.00949  -0.6047  0.6541
6.426e+09  0.8021  0.4262  -0.00533  0.001176  0.0168  0.009715  -0.3641  0.8045
6.428e+09  0.8951  0.1206  0.0121  0.00899  0.004546  0.006839  -0.04976  0.8766
6.429e+09  0.8732  -0.183  0.01046  -0.01133  0.008877  -0.0009828  0.2375  0.8496
6.43e+09  0.7563  -0.4896  -0.01104  -0.001739  -0.004866  0.006157  0.5328  0.6967
6.431e+09  0.5274  -0.7195  0.01912  0.01684  -0.01804  -0.005795  0.7328  0.4928
6.432e+09  0.2545  -0.8661  -0.003496  0.01116  -0.0021  0.001747  0.8406  0.2134
6.434e+09  -0.06792  -0.8958  0.002485  -0.01614  0.001293  -0.01367  0.8665  -0.08855
6.435e+09  -0.3711  -0.8274  -0.00164  0.002469  -0.0002447  0.000154  0.773  -0.3751
6.436e+09  -0.6342  -0.6473  0.001868  -0.005339  0.0004954  0.001741  0.6089  -0.6125
6.438e+09  -0.7996  -0.393  -0.007149  -0.001621  -0.001036  -0.008053  0.3608  -0.7876
6.439e+09  -0.9052  -0.08818  -0.001789  0.009687  0.01447  0.017  0.06911  -0.8548
6.44e+09  -0.8874  0.238  -0.006009  -0.005987  -0.01138  0.00695  -0.2316  -0.8232
6.441e+09  -0.732  0.5392  -0.007753  0.006057  -0.01173  -0.002573  -0.5069  -0.6848
6.442e+09  -0.5065  0.7551  0.002272  -0.004731  0.007093  -0.003145  -0.7039  -0.4717
6.444e+09  -0.2221  0.8935  -0.004688  0.0007178  0.008761  0.004953  -0.8242  -0.2237
6.445e+09  0.09886  0.8997  0.0003096  -0.00244  -0.01214  -0.0006337  -0.8445  0.0806
6.446e+09  0.3909  0.8067  -0.002181  -0.01046  0.006522  -0.01112  -0.7609  0.3747
6.448e+09  0.6811  0.6236  0.006062  0.003813  0.008405  -0.005448  -0.5967  0.5941
6.449e+09  0.8523  0.3352  -0.008574  0.007134  0.01428  -0.00132  -0.3325  0.7643
6.45e+09  0.9075  0.02591  -0.007754  -0.001533  -0.006246  0.0007348  -0.06133  0.8473
6.451e+09  0.8661  -0.3067  -0.005531  -0.01522  -0.001062  0.005819  0.2421  0.7911
6.452e+09  0.7233  -0.5723  0.005489  0.01303  0.01116  -0.004832  0.4716  0.6648
6.454e+09  0.4783  -0.791  -2.618e-05  0.005497  0.005843  0.002252  0.6943  0.4737
6.455e+09  0.1666  -0.9016  0.004163  -0.002073  -0.0001066  -0.006726  0.7974  0.2101
6.456e+09  -0.1633  -0.8939  -0.007842  -0.003378  0.006072  -0.0004778  0.8217  -0.0763
6.458e+09  -0.4594  -0.7706  0.005199  -0.001944  0.001082  -0.002695  0.7547  -0.3613
6.459e+09  -0.7093  -0.5528  0.004768  -0.004403  -0.008865  -0.008952  0.5693  -0.5893
6.46e+09  -0.8653  -0.2887  -0.000568  0.005971  0.005522  0.008941  0.3379  -0.7453
6.461e+09  -0.9136  0.03287  0.004472  0.005656  0.001625  0.00535  0.07604  -0.8115
6.462e+09  -0.83  0.3528  -0.0001974  0.005325  -0.001078  -0.02078  -0.2119  -0.7818
6.464e+09  -0.6671  0.6151  0.002849  -0.01284  -0.008223  -0.002672  -0.4576  -0.6542
6.465e+09  -0.4064  0.8088  0.004937  -0.007924  0.003228  0.004097  -0.6578  -0.4513
6.466e+09  -0.09096  0.9071  0.003468  -0.00855  0.005273  -0.01484  -0.7772  -0.186
6.468e+09  0.2134  0.8768  -0.01071  -0.002946  -0.006425  0.0002545  -0.8125  0.06779
6.469e+09  0.5096  0.7379  -0.0054  -0.002581  -0.0004194  -0.00262  -0.7236  0.3466
6.47e+09  0.741  0.52  0.01248  -0.003184  -0.0003318  0.008882  -0.5669  0.5778
6.471e+09  0.8672  0.2218  -0.004147  -0.01114  -0.0005867  -0.01671  -0.3416  0.7343
6.472e+09  0.9167  -0.1056  0.01511  0.007533  -0.01443  -0.002998  -0.05542  0.7807
6.474e+09  0.7968  -0.4104  0.005147  -0.008393  -0.005827  -0.01204  0.2068  0.7596
6.475e+09  0.5927  -0.6752  0.005076  0.001219  0.006182  0.0003489  0.4673  0.6421
6.476e+09  0.3418  -0.8383  0.004811  -0.00385  -0.002835  -0.01422  0.6572  0.4422
6.478e+09  0.02853  -0.8815  0.01336  0.008117  0.003886  -0.01203  0.7586  0.1885
6.479e+09  -0.2948  -0.8504  -0.006962  0.001262  -0.00153  0.002974  0.7754  -0.08451
6.48e+09  -0.5737  -0.6962  0.003582  0.001506  0.004373  0.009121  0.7019  -0.3478
6.481e+09  -0.7762  -0.4451  -0.004862  -0.005406  -0.003383  0.006373  0.5492  -0.5552
6.482e+09  -0.8729  -0.1408  -0.006275  -0.001955  -0.005474  0.02036  0.3146  -0.7063
6.484e+09  -0.8683  0.1583  -0.003565  0.006308  -0.003495  0.001681  0.05847  -0.7667
6.485e+09  -0.7631  0.4459  -0.003461  -0.000475  0.008276  0.02022  -0.2162  -0.7485
6.486e+09  -0.5515  0.692  0.002471  -0.01239  -0.00107  0.008865  -0.4663  -0.6196
6.488e+09  -0.2454  0.8492  0.004442  0.007523  0.0002444  0.00132  -0.651  -0.4419
6.489e+09  0.03611  0.8628  0.003138  -0.0008527  0.003609  -0.01416  -0.7675  -0.1795
6.49e+09  0.3509  0.7849  0.007407  0.004471  -0.01289  -0.0009982  -0.7623  0.08164
6.491e+09  0.5908  0.6164  -0.001672  -0.008354  -0.01352  0.003884  -0.6903  0.3354
6.492e+09  0.7721  0.3693  4.798e-05  -0.0102  0.0004026  -0.00784  -0.5292  0.5631
6.494e+09  0.825  0.09471  -0.001244  -0.00604  -0.002507  0.004158  -0.2899  0.7053
6.495e+09  0.8182  -0.2273  0.0004811  0.01261  -0.005135  -0.0006684  -0.04798  0.7698
6.496e+09  0.6893  -0.4948  -0.002973  -0.002413  -0.0009416  -0.009605  0.2173  0.7384
6.498e+09  0.4621  -0.6966  0.004232  0.002289  -0.01122  0.002539  0.4601  0.6131
6.499e+09  0.1861  -0.8311  -0.00157  0.002002  -0.003319  0.01088  0.6497  0.4073
6.5e+09  -0.0992  -0.8313  -0.003864  -0.009057  -0.005913  -0.004367  0.7495  0.1645
6.501e+09  -0.3766  -0.7368  -0.0005936  0.0006674  -0.01213  0.01008  0.7782  -0.09512
6.502e+09  -0.6101  -0.5671  -0.00482  -0.005356  0.01487  -0.008781  0.6704  -0.3663
6.504e+09  -0.7672  -0.2889  -0.001643  -0.005595  0.003275  0.004024  0.5045  -0.5736
6.505e+09  -0.8209  -0.0272  -0.002462  -0.009961  -0.002484  0.02425  0.2681  -0.7115
6.506e+09  -0.7672  0.2469  0.003582  0.002114  0.008012  0.002184  0.01853  -0.7609
6.508e+09  -0.6463  0.5236  -0.003099  -0.01516  0.01059  -0.01231  -0.2414  -0.7294
6.509e+09  -0.4079  0.701  -0.003316  0.007662  -0.0111  -0.005111  -0.4789  -0.5785
6.51e+09  -0.1515  0.8168  -0.005517  -0.002408  -0.012  0.001103  -0.6514  -0.38
6.511e+09  0.1229  0.7878  -0.001956  0.002095  -0.001982  -0.001031  -0.7453  -0.1331
6.512e+09  0.3963  0.6981  -0.01032  -0.0003035  0.01667  0.01359  -0.744  0.1285
6.514e+09  0.6233  0.5178  0.001163  -0.006981  0.002591  -0.006125  -0.6615  0.3815
6.515e+09  0.7608  0.2632  0.003699  0.008153  -0.009082  0.0009414  -0.4961  0.5728
6.516e+09  0.8048  0.006022  0.0127  0.004928  0.01292  0.006631  -0.2452  0.7131
6.518e+09  0.723  -0.2868  0.007686  -0.004642  0.004659  0.002248  0.0223  0.7451
6.519e+09  0.5968  -0.5247  -0.01024  -0.01127  0.00253  0.002598  0.2709  0.7005
6.52e+09  0.3832  -0.7132  0.002628  -0.0003859  -0.004576  -9.352e-05  0.5004  0.5546
6.521e+09  0.1235  -0.7741  0.008983  0.008466  0.01298  -0.008416  0.6588  0.3467
6.522e+09  -0.1696  -0.7709  0.00708  -0.0001058  0.001491  -0.01021  0.731  0.09561
6.524e+09  -0.4231  -0.6591  0.01121  0.01055  -0.01313  0.004332  0.7116  -0.1611
6.525e+09  -0.6131  -0.4807  -0.000493  0.001546  0.01164  0.002178  0.6047  -0.398
6.526e+09  -0.7577  -0.2224  -0.0002651  -0.001714  0.001993  0.01181  0.4252  -0.589
6.528e+09  -0.7858  0.05566  -0.003752  0.008145  -0.005766  0.003878  0.1947  -0.6859
6.529e+09  -0.7064  0.3299  0.0008328  -0.006895  -0.005315  0.007075  -0.05603  -0.6967
6.53e+09  -0.5433  0.5278  0.004284  -0.002145  -0.001593  0.001477  -0.2782  -0.6355
6.531e+09  -0.3324  0.6959  0.008833  -0.008324  0.01003  0.002507  -0.4866  -0.4849
6.532e+09  -0.06346  0.7672  0.001955  0.003349  0.002692  0.01712  -0.5921  -0.2895
6.534e+09  0.1948  0.7439  0.005201  0.006311  -0.0003757  0.0008635  -0.6404  -0.08519
6.535e+09  0.4339  0.6229  -0.002104  -0.008961  -0.009338  -0.004024  -0.6285  0.1017
6.536e+09  0.6395  0.4226  -0.002949  -0.00128  0.003378  0.007681  -0.5535  0.3148
6.538e+09  0.7346  0.1861  0.001984  0.001934  -0.007287  0.009902  -0.4417  0.4819
6.539e+09  0.7584  -0.09016  0.009936  -0.007634  0.009499  -0.01507  -0.2896  0.6134
6.54e+09  0.6796  -0.337  0.006377  -0.002237  0.007267  -0.007589  -0.04972  0.6794
6.541e+09  0.4999  -0.5508  0.0006846  -0.00934  0.004922  -0.01127  0.1964  0.6683
