# Hz S RI R 50
6.25e+09  -0.002738  -0.9184  -0.005459  -0.00149  0.007042  0.002953  0.1646  0.4667
6.251e+09  -0.3093  -0.8789  -0.0008916  -0.008906  0.01637  -0.006099  0.3715  0.3942
6.252e+09  -0.5978  -0.7153  -0.002599  -0.003787  0.008292  0.006518  0.5353  0.2488
6.254e+09  -0.8025  -0.4751  0.003185  -0.00748  -0.005794  0.02003  0.6183  0.01301
6.255e+09  -0.9057  -0.1815  -0.003666  -0.0108  -0.00489  -0.01572  0.5951  -0.2233
6.256e+09  -0.8971  0.1418  -0.009402  -0.005918  -0.01346  -0.001966  0.4753  -0.4457
6.258e+09  -0.8175  0.4317  0.004208  -0.002375  0.001554  0.01563  0.2801  -0.5976
6.259e+09  -0.595  0.6829  0.001844  0.003281  0.009442  -0.009574  0.04583  -0.6795
6.26e+09  -0.3451  0.8472  -0.006078  0.0112  -0.003616  0.004247  -0.2123  -0.6584
6.261e+09  -0.04434  0.9178  0.002792  -0.0009956  -0.001585  -0.001231  -0.4393  -0.5541
6.262e+09  0.2716  0.8781  0.004404  0.01476  -0.009181  0.01663  -0.6158  -0.3491
6.264e+09  0.5492  0.756  0.006601  -0.003415  -0.005871  0.0003741  -0.7069  -0.1039
6.265e+09  0.7594  0.5007  0.004796  0.008356  -0.00316  -0.001088  -0.7119  0.1642
6.266e+09  0.905  0.2126  0.001482  0.008366  0.02161  -0.01786  -0.6128  0.4108
6.268e+09  0.922  -0.09612  0.003155  -0.001005  0.003994  0.0002784  -0.4325  0.6028
6.269e+09  0.8352  -0.3863  0.001088  -0.0003765  -0.01258  -0.003229  -0.2063  0.7203
6.27e+09  0.6473  -0.6631  -0.0007663  0.006239  0.0164  -0.01227  0.06587  0.7367
6.271e+09  0.4089  -0.8375  0.0004254  0.008133  0.00148  0.003018  0.3329  0.6764
6.272e+09  0.1013  -0.9181  0.006914  -0.00298  0.001927  -0.01852  0.5408  0.5288
6.274e+09  -0.2356  -0.8949  -0.006075  -0.003543  -0.007804  -0.005564  0.6961  0.3058
6.275e+09  -0.5129  -0.7711  0.0085  -0.002215  -0.007542  0.006937  0.7581  0.03683
6.276e+09  -0.7385  -0.542  0.004517  -0.006614  -0.004215  -3.806e-05  0.7316  -0.2243
6.278e+09  -0.8822  -0.2632  0.002321  -0.0003794  -0.01465  0.01584  0.6169  -0.4752
6.279e+09  -0.9415  0.05507  0.007884  0.0009194  0.005835  0.01468  0.4215  -0.6537
6.28e+09  -0.8407  0.3517  0.001288  -0.007004  0.001084  -0.008946  0.1571  -0.7613
6.281e+09  -0.6807  0.6116  0.005706  0.00488  -0.01278  -0.01821  -0.1105  -0.7798
6.282e+09  -0.4401  0.8178  0.002493  -0.005315  -0.01052  0.0108  -0.3638  -0.6902
6.284e+09  -0.1257  0.913  0.002123  0.00552  0.009211  0.003253  -0.5955  -0.5202
6.285e+09  0.1979  0.9145  0.0025  -0.002796  0.007905  0.001503  -0.7419  -0.3027
6.286e+09  0.4813  0.7967  -0.002996  0.001313  0.002577  -0.006905  -0.7969  -0.01564
6.288e+09  0.7019  0.5881  0.01145  -4.763e-05  -0.008141  -0.01653  -0.7502  0.2527
6.289e+09  0.8724  0.3035  0.001739  -0.003957  -0.003283  -0.006865  -0.6206  0.5159
6.29e+09  0.9305  0.007384  -0.0005059  -0.004231  0.0132  -0.001346  -0.4077  0.6939
6.291e+09  0.863  -0.3261  -0.001499  0.004381  -0.00899  -0.0201  -0.1484  0.8022
6.292e+09  0.7179  -0.6055  0.0009425  -0.01643  -0.009489  -0.003367  0.1291  0.8045
6.294e+09  0.4785  -0.8156  0.003322  -0.0002462  0.003128  0.004478  0.4041  0.7132
6.295e+09  0.1741  -0.8964  -0.0006072  -0.001113  -0.001973  -0.0001636  0.6262  0.528
6.296e+09  -0.1221  -0.9319  0.0007749  0.00622  0.002872  0.01211  0.773  0.2845
6.298e+09  -0.4403  -0.8291  -0.00324  0.0008552  -0.007064  0.008015  0.8406  0.01558
6.299e+09  -0.6818  -0.6255  -0.003104  0.0006133  -0.0009687  0.008761  0.7925  -0.2909
6.3e+09  -0.8574  -0.3599  -0.0006163  3.928e-05  0.01737  -0.005238  0.6557  -0.5225
6.301e+09  -0.9217  -0.04356  0.001486  -0.002528  -0.0007962  -0.009435  0.42  -0.7298
6.302e+09  -0.8865  0.2722  -0.002587  -0.01336  0.0001768  -0.008455  0.1481  -0.824
6.304e+09  -0.7455  0.557  -0.007908  -0.009638  0.001102  0.01338  -0.1354  -0.836
6.305e+09  -0.5364  0.7878  -0.00226  -0.007888  -0.004768  0.0002524  -0.423  -0.7398
6.306e+09  -0.2318  0.9122  -0.01535  0.000219  0.002988  0.01513  -0.6521  -0.5532
6.308e+09  0.09434  0.9371  -0.00456  0.004517  -0.01286  -0.005465  -0.8062  -0.2964
6.309e+09  0.3998  0.8513  0.004872  0.001743  -0.001387  0.006866  -0.8584  -0.01161
6.31e+09  0.6696  0.664  -0.001185  -0.007231  0.002469  -0.003276  -0.8145  0.2912
6.311e+09  0.8322  0.4028  -0.00924  -0.0005912  0.003907  -0.01499  -0.6632  0.5538
6.312e+09  0.9337  0.08314  -0.002133  0.00515  0.0165  -0.004256  -0.4435  0.7478
6.314e+09  0.9128  -0.2045  0.0005918  -0.01312  0.001266  0.008319  -0.1689  0.868
6.315e+09  0.7897  -0.5198  0.00296  -0.003009  -0.009719  0.007619  0.1407  0.8676
6.316e+09  0.5767  -0.7459  -0.009103  0.001205  -0.005164  -0.01262  0.4264  0.7729
6.318e+09  0.2742  -0.9014  0.000714  -0.0006945  0.01092  -0.01104  0.6769  0.5805
6.319e+09  -0.04867  -0.9434  -0.004208  -0.004984  -0.005292  0.006211  0.8265  0.3105
6.32e+09  -0.3634  -0.8808  0.004932  0.00475  -0.01403  -0.001085  0.8681  0.002894
6.321e+09  -0.6269  -0.7119  0.008379  -0.009486  -0.007781  -0.01395  0.8293  -0.2998
6.322e+09  -0.8475  -0.441  0.004661  0.001898  0.01435  0.002395  0.6976  -0.5556
6.324e+09  -0.9526  -0.1451  -0.003199  0.009538  -0.0004707  0.0126  0.4639  -0.7669
6.325e+09  -0.9378  0.1712  -0.006636  0.002808  0.01558  -0.000597  0.179  -0.8935
6.326e+09  -0.8369  0.4864  0.007508  0.001347  -0.001665  0.01086  -0.1415  -0.8868
6.328e+09  -0.6063  0.73  0.002023  -0.005097  0.0001404  0.009631  -0.4348  -0.789
6.329e+09  -0.3315  0.9115  -0.004137  -0.002504  -0.0005936  -0.01381  -0.6791  -0.6191
6.33e+09  -0.007271  0.9522  0.003544  -0.009419  -0.01439  0.008631  -0.8458  -0.3319
6.331e+09  0.3109  0.9186  0.004518  -0.002517  -0.007691  -0.005676  -0.9108  -0.03427
6.332e+09  0.5995  0.7587  -0.004717  -0.004053  0.006498  -0.01006  -0.8676  0.2877
6.334e+09  0.8229  0.4863  -0.004844  0.0005717  0.009016  -0.005931  -0.7227  0.5638
6.335e+09  0.9607  0.1921  -0.002959  0.001568  -0.007367  -0.003468  -0.493  0.7727
6.336e+09  0.9461  -0.1266  0.002717  0.00656  -0.003065  -0.004726  -0.1931  0.8942
6.338e+09  0.8582  -0.4531  0.003925  0.002125  0.009964  0.01087  0.113  0.9102
6.339e+09  0.6556  -0.7112  0.003155  -0.003486  -0.005045  -0.001507  0.4322  0.8248
6.34e+09  0.3632  -0.8974  0.001635  0.00297  -0.01203  0.000506  0.6749  0.6217
6.341e+09  0.05883  -0.9782  -0.004997  -0.000149  0.01086  -0.005796  0.8595  0.3577
6.342e+09  -0.2856  -0.9235  0.01309  0.0001099  0.003068  0.0007253  0.931  0.04209
6.344e+09  -0.5683  -0.774  -0.008823  -0.006026  -0.006525  -0.00303  0.8928  -0.2651
6.345e+09  -0.8215  -0.5438  0.001283  -0.007682  -0.004787  0.01393  0.7474  -0.5545
6.346e+09  -0.9547  -0.2394  0.004685  -0.001161  -0.005111  0.008908  0.4982  -0.787
6.348e+09  -0.9703  0.09935  -0.01004  -0.009273  -0.01091  0.006911  0.2152  -0.9118
6.349e+09  -0.8873  0.4225  -0.01235  0.007872  0.009957  0.006639  -0.1064  -0.9322
6.35e+09  -0.7015  0.6899  -0.003658  -0.00352  0.008199  -0.006762  -0.4247  -0.8512
6.351e+09  -0.4142  0.8789  0.009058  0.0005565  0.01129  0.008515  -0.6948  -0.6438
6.352e+09  -0.09059  0.9821  0.001762  0.001261  0.009212  -0.0006035  -0.8567  -0.3661
6.354e+09  0.249  0.9426  0.006455  -0.005213  0.01374  0.01637  -0.9492  -0.06423
6.355e+09  0.5453  0.8333  -0.004146  -0.0008232  0.02594  0.01268  -0.9242  0.2694
6.356e+09  0.8002  0.5806  0.003884  0.00112  0.005393  0.0003887  -0.7687  0.5587
6.358e+09  0.9489  0.2826  0.004153  0.006163  0.005105  -0.0121  -0.5304  0.7953
6.359e+09  0.9857  -0.04111  -0.001187  0.001219  -0.009525  -0.009213  -0.2193  0.9213
6.36e+09  0.9275  -0.3797  0.004459  0.003704  0.002355  0.005825  0.1067  0.9431
6.361e+09  0.7289  -0.6742  -0.006669  -0.008799  0.007618  -0.009336  0.4117  0.8689
6.362e+09  0.468  -0.8808  -0.007081  -0.002113  -0.002067  -0.01496  0.6885  0.6723
6.364e+09  0.1441  -0.9829  -0.01333  -0.0004489  0.005195  0.001202  0.8781  0.4
6.365e+09  -0.205  -0.9782  -0.005384  -0.008592  -0.003029  -0.0009489  0.9488  0.07419
6.366e+09  -0.5176  -0.8409  0.006648  -0.003231  -0.01521  0.001266  0.9247  -0.2392
6.368e+09  -0.7709  -0.6187  -0.00328  0.003055  0.01226  0.005294  0.7788  -0.5417
6.369e+09  -0.9349  -0.3156  0.006473  0.0036  -0.009994  -0.01951  0.5387  -0.7851
6.37e+09  -1.005  0.01244  -0.005608  -0.01096  0.00403  0.000561  0.2321  -0.9335
6.371e+09  -0.9297  0.3469  0.006373  0.008637  -0.001436  -0.008956  -0.08662  -0.944
6.372e+09  -0.7619  0.6395  -0.006746  0.01203  0.001018  -0.00719  -0.3964  -0.8472
6.374e+09  -0.5087  0.8708  0.001605  0.002962  0.008547  -0.008214  -0.6741  -0.6782
6.375e+09  -0.1875  0.9844  0.003819  0.001037  -6.632e-05  -0.002086  -0.858  -0.4072
6.376e+09  0.1744  0.9739  0.0009821  0.00447  -0.007869  -0.005886  -0.9536  -0.09192
6.378e+09  0.4796  0.872  0.003573  -0.004768  -0.004017  -0.00578  -0.9275  0.2249
6.379e+09  0.7538  0.6572  0.007809  -0.009763  0.0008282  -0.002341  -0.7889  0.5301
6.38e+09  0.9322  0.3741  -0.009703  -0.0009308  -0.00991  -0.001613  -0.5549  0.7689
6.381e+09  1.01  0.03084  -0.001342  0.001814  0.007288  0.01101  -0.2682  0.916
6.382e+09  0.9625  -0.3089  0.006373  -0.01866  0.004065  0.0007524  0.06232  0.9343
6.384e+09  0.7951  -0.6171  0.009513  -0.01295  0.004087  -0.003314  0.3684  0.8761
6.385e+09  0.5374  -0.8591  0.001108  0.0123  0.006434  -0.002496  0.6409  0.6919
6.386e+09  0.2256  -0.9868  -0.01354  -0.009358  -0.007387  0.0127  0.8352  0.4291
6.388e+09  -0.1127  -1.002  -0.01251  -2.121e-05  0.0001509  0.01059  0.9252  0.119
6.389e+09  -0.4444  -0.901  -0.001002  0.0003704  0.005242  -0.001063  0.9095  -0.2028
6.39e+09  -0.7384  -0.7042  0.006729  0.01576  -0.0001443  -0.006801  0.7732  -0.4984
6.391e+09  -0.9254  -0.4087  -0.008309  -0.002079  -0.004794  -0.005584  0.5776  -0.7235
6.392e+09  -1.003  -0.06367  0.008046  -0.001789  0.00659  -0.01724  0.2785  -0.8793
6.394e+09  -0.9846  0.2832  -0.005579  0.003494  0.01427  0.007267  -0.0325  -0.9292
6.395e+09  -0.8251  0.612  0.005455  0.006977  0.006099  0.0008489  -0.3428  -0.8501
6.396e+09  -0.5736  0.8519  -0.009399  -0.001864  0.00237  -0.004006  -0.6166  -0.6947
6.398e+09  -0.2615  0.9809  0.005393  -0.002287  -0.003755  -0.0126  -0.8143  -0.4398
6.399e+09  0.0878  1.032  -0.00434  -0.0009358  -0.003317  -0.01628  -0.9065  -0.1279
6.4e+09  0.4463  0.9259  0.006301  0.00898  -0.0003334  0.008949  -0.9127  0.1701
6.401e+09  0.7041  0.7243  0.002156  0.004499  -0.0005665  -0.01204  -0.7983  0.4852
6.402e+09  0.9324  0.4545  -0.009305  -0.005766  0.01126  0.01423  -0.5828  0.7219
6.404e+09  1.014  0.1162  -0.001589  -0.01008  -0.01146  -0.005498  -0.3209  0.8808
6.405e+09  0.9868  -0.2419  0.005756  -0.005086  -0.002151  -0.005835  0.004249  0.9192
6.406e+09  0.8347  -0.585  -0.006089  -0.005662  -0.01622  -0.004824  0.3218  0.875
6.408e+09  0.6012  -0.8154  -0.006008  -0.009744  -0.0003344  0.0003136  0.5902  0.701
6.409e+09  0.2906  -0.9973  0.00299  -0.02017  -0.009277  0.007621  0.7952  0.4755
6.41e+09  -0.06645  -1.028  0.01183  0.006219  0.0004648  0.003082  0.902  0.1781
6.411e+09  -0.4206  -0.9457  0.01336  -0.02892  0.005984  0.002051  0.8955  -0.142
6.412e+09  -0.7226  -0.7639  0.01871  0.0194  -0.00758  0.003196  0.8011  -0.4301
6.414e+09  -0.9313  -0.461  -0.002505  -0.00347  -0.01736  -0.001098  0.5981  -0.6821
6.415e+09  -1.028  -0.1278  0.00616  -0.0007625  0.01404  0.01314  0.3398  -0.8267
6.416e+09  -1.008  0.235  -0.001017  -0.001372  0.008447  0.002341  0.01829  -0.9015
6.418e+09  -0.8837  0.5711  0.002111  0.005482  0.007577  -0.001815  -0.278  -0.8504
6.419e+09  -0.6355  0.8248  -0.005009  -0.003869  -0.001893  0.009832  -0.5454  -0.708
6.42e+09  -0.3023  1  0.008273  -0.0106  0.01961  -0.004399  -0.7645  -0.4789
6.421e+09  0.06368  1.054  0.002501  0.001338  0.001786  0.004403  -0.8698  -0.2041
6.422e+09  0.412  0.9747  -0.002905  0.004675  -0.007127  -0.01968  -0.893  0.1073
6.424e+09  0.7102  0.7945  0.01174  0.003054  0.009657  -0.004279  -0.7904  0.416
6.425e+09  0.9368  0.4933  0.002351  -0.007425  -0.003161  0.002134  -0.6148  0.6466
6.426e+09  1.062  0.1259  -0.003749  -0.009029  0.007732  0.002001  -0.3475  0.8105
6.428e+09  1.039  -0.2323  -0.02719  -0.0007024  0.004785  -0.001906  -0.05293  0.8891
6.429e+09  0.895  -0.5689  0.002933  -0.002027  -0.01692  0.002665  0.2582  0.8565
6.43e+09  0.6607  -0.8457  0.002826  0.002035  -0.001899  0.02868  0.5051  0.7226
6.431e+09  0.3242  -1.025  0.001442  0.001297  -0.01329  -0.01052  0.7287  0.4887
6.432e+09  -0.05072  -1.052  -0.006513  -0.02548  0.002481  -0.00514  0.8356  0.2
6.434e+09  -0.4015  -0.9963  0.009511  -0.004176  0.0007571  0.008752  0.8606  -0.0834
6.435e+09  -0.7115  -0.7727  -0.003739  -0.005503  -0.00434  0.02316  0.7821  -0.3836
6.436e+09  -0.947  -0.5038  0.009211  0.001996  0.001425  -0.0005084  0.625  -0.6233
6.438e+09  -1.079  -0.1443  0.003405  -0.000648  0.004648  -0.003776  0.3521  -0.7829
6.439e+09  -1.047  0.2265  0.001257  -0.006839  0.01436  -0.003233  0.06592  -0.8515
6.44e+09  -0.916  0.5737  0.004842  -0.01145  -0.008144  0.001386  -0.2179  -0.8232
6.441e+09  -0.6693  0.8534  0.003194  -0.01395  0.008934  -0.006722  -0.5002  -0.696
6.442e+09  -0.3126  1.032  -0.003327  -0.01352  0.008899  -0.0147  -0.7063  -0.483
6.444e+09  0.05111  1.08  -0.0004664  0.003928  -0.000297  -0.01267  -0.8291  -0.2058
6.445e+09  0.4004  1  -0.004015  -0.0005484  -0.0004332  0.008516  -0.8431  0.0796
6.446e+09  0.7498  0.7923  -0.00166  -0.0001463  -0.0001776  0.01409  -0.7601  0.3674
6.448e+09  0.9574  0.4893  0.00356  -0.006882  -0.004982  -0.0004074  -0.6108  0.6086
6.449e+09  1.071  0.1389  -0.01884  0.007576  0.01108  -0.002282  -0.3361  0.7708
6.45e+09  1.057  -0.2515  0.007512  -0.02338  -0.01455  0.0101  -0.06526  0.8275
6.451e+09  0.9077  -0.5913  0.0009328  -0.006502  0.002133  -0.003025  0.2231  0.8082
6.452e+09  0.6474  -0.869  0.001019  0.005282  -0.005402  -0.006449  0.4844  0.675
6.454e+09  0.3153  -1.021  0.004725  0.011  0.003859  0.002144  0.6714  0.4766
6.455e+09  -0.06375  -1.066  -6.969e-05  -0.00308  -0.01968  -0.002942  0.8  0.2442
6.456e+09  -0.4279  -1.001  0.007804  -0.01693  -0.008014  -0.004207  0.8156  -0.0816
6.458e+09  -0.7477  -0.7914  0.01025  0.01307  -0.0003803  0.009167  0.7459  -0.3566
6.459e+09  -0.9576  -0.4811  0.002001  0.01277  -0.01695  -0.01002  0.5697  -0.5847
6.46e+09  -1.068  -0.1241  -0.002579  0.003513  0.005549  -0.007086  0.3423  -0.7663
6.461e+09  -1.06  0.254  0.0004371  -0.006809  0.009838  0.01077  0.07444  -0.8165
6.462e+09  -0.9055  0.5897  -0.005589  0.009534  -0.00136  0.001413  -0.2022  -0.7805
6.464e+09  -0.6431  0.8684  0.009474  -0.001544  0.001516  0.00733  -0.4789  -0.6483
6.465e+09  -0.3017  1.042  0.01354  -0.005506  -0.0108  -0.01208  -0.6725  -0.464
6.466e+09  0.08878  1.071  0.005239  0.001808  -0.0002743  0.0007499  -0.7806  -0.2175
6.468e+09  0.4467  1.002  0.01003  -0.003817  -0.003353  0.01683  -0.8012  0.07395
6.469e+09  0.7475  0.7685  0.006357  0.002411  -0.005145  -0.006899  -0.7202  0.3469
6.47e+09  0.9639  0.4589  0.007119  -0.01144  -0.009158  -0.005495  -0.5724  0.5631
6.471e+09  1.063  0.1107  0.001434  0.000254  0.01965  -0.004532  -0.3169  0.7165
6.472e+09  1.036  -0.2689  -9.539e-05  -0.008117  0.003142  3.394e-05  -0.05851  0.79
6.474e+09  0.8807  -0.6036  0.007008  -0.001934  0.00279  -0.004218  0.2188  0.7709
6.475e+09  0.6187  -0.8816  0.001136  -0.007288  0.006362  9.271e-05  0.4557  0.6415
6.476e+09  0.2941  -1.026  0.01096  -0.003515  -0.003729  0.008815  0.6489  0.4503
6.478e+09  -0.09534  -1.046  0.00108  0.001178  -0.007117  0.003602  0.7643  0.1978
6.479e+09  -0.4296  -0.9594  -0.003556  0.00108  0.01038  -0.02173  0.776  -0.07468
6.48e+09  -0.7481  -0.7427  0.01249  0.003815  0.01017  -0.01382  0.7083  -0.3399
6.481e+09  -0.9527  -0.4471  -0.01208  -0.007768  0.01607  0.01343  0.5442  -0.5636
6.482e+09  -1.071  -0.08104  -0.003841  0.008335  -0.00173  0.006201  0.3073  -0.7082
6.484e+09  -1.02  0.267  0.00192  0.004367  -0.0002113  0.009192  0.05836  -0.7756
6.485e+09  -0.8641  0.6025  -0.007899  -0.003126  0.002448  -0.003435  -0.2219  -0.7265
6.486e+09  -0.6018  0.8753  -0.003521  0.004811  -0.002758  0.001667  -0.4606  -0.6176
6.488e+09  -0.2672  1.007  -0.005058  0.009697  -0.001436  0.002742  -0.6534  -0.4356
6.489e+09  0.09831  1.034  -0.00484  -0.008183  0.01333  -0.002114  -0.7552  -0.1918
6.49e+09  0.4354  0.9291  0.00218  0.003858  -0.008735  -0.01808  -0.7697  0.08593
6.491e+09  0.7308  0.7311  0.01131  -3.244e-06  -0.002152  -0.0009841  -0.7034  0.3526
6.492e+09  0.9374  0.4424  -0.01052  -0.009839  0.009238  -0.001301  -0.5326  0.5601
6.494e+09  1.021  0.08595  -0.007951  0.00369  0.0133  -0.002483  -0.3037  0.7175
6.495e+09  0.9876  -0.2695  -0.0007154  -0.005254  0.005299  -0.0005996  -0.02859  0.7625
6.496e+09  0.8267  -0.6016  -0.01362  0.01009  -0.003938  0.0009663  0.2128  0.7313
6.498e+09  0.5652  -0.8319  0.005199  0.004217  0.01029  -0.0005764  0.454  0.602
6.499e+09  0.2535  -0.987  0.01226  0.001557  -0.01058  0.006454  0.6435  0.4201
6.5e+09  -0.1091  -1.002  0.01962  0.01378  0.02235  -0.008789  0.7403  0.162
6.501e+09  -0.4295  -0.9105  -0.0007595  -0.008278  -0.01096  -0.003327  0.7566  -0.105
6.502e+09  -0.6963  -0.7128  0.006276  -0.007174  -0.0161  -0.0009275  0.6747  -0.3548
6.504e+09  -0.9223  -0.4313  -0.003482  0.003214  0.008817  -0.001709  0.5154  -0.5598
6.505e+09  -1.006  -0.09609  -0.002003  -0.01391  0.007606  -0.004724  0.2917  -0.6986
6.506e+09  -0.9638  0.2565  0.01238  0.002129  0.009366  -0.003959  0.01007  -0.7685
6.508e+09  -0.8175  0.5692  0.0005409  0.001818  0.01114  -0.004578  -0.2423  -0.7321
6.509e+09  -0.5995  0.8056  0.006334  -0.0002578  0.0002149  -0.01015  -0.4918  -0.5924
6.51e+09  -0.2707  0.9348  -0.01352  0.008499  0.002902  -0.01414  -0.6632  -0.3853
6.511e+09  0.06167  0.9908  0.0009995  0.0004783  0.00893  9.23e-05  -0.7592  -0.1317
6.512e+09  0.4116  0.9022  0.0007511  0.008026  -0.0007622  -0.006844  -0.747  0.1167
6.514e+09  0.6711  0.7162  0.001711  -0.007253  0.004267  -0.004377  -0.6536  0.3827
6.515e+09  0.8944  0.434  -0.000904  -0.004341  -0.000543  -0.01035  -0.4795  0.5892
6.516e+09  0.9674  0.1119  -0.00908  0.005181  0.01418  -0.01105  -0.2508  0.7227
6.518e+09  0.9552  -0.2397  -0.00498  0.0008045  0.006307  0.01319  0.006185  0.7438
6.519e+09  0.8028  -0.5421  -0.002666  0.003295  -0.002019  -0.008928  0.2697  0.7036
6.52e+09  0.5703  -0.7649  -0.001977  -0.0008065  -0.00798  0.007151  0.4987  0.552
6.521e+09  0.275  -0.9451  -0.004035  -0.001496  0.006518  0.008919  0.6411  0.3502
6.522e+09  -0.04582  -0.9648  0.001977  0.006485  -0.00267  -0.01055  0.7303  0.0837
6.524e+09  -0.3817  -0.8728  -0.004421  -0.007353  -0.0168  -0.02066  0.7107  -0.1533
6.525e+09  -0.647  -0.6987  0.0101  -0.003896  -0.003909  0.01477  0.6185  -0.3965
6.526e+09  -0.8547  -0.4396  0.009186  0.005859  0.01194  -0.005421  0.434  -0.5795
6.528e+09  -0.9524  -0.1258  0.00203  0.0009883  0.006297  -0.01429  0.1959  -0.686
6.529e+09  -0.9154  0.2141  0.0004078  -0.007186  0.008092  -0.008904  -0.04831  -0.6962
6.53e+09  -0.7917  0.5175  -0.005966  0.004154  -0.006563  0.0113  -0.2832  -0.6363
6.531e+09  -0.5743  0.783  0.001238  -0.003698  0.01286  0.007043  -0.4644  -0.4842
6.532e+09  -0.2785  0.8977  0.004687  0.01006  0.00167  0.00724  -0.5888  -0.2954
6.534e+09  0.03576  0.9367  -0.001042  0.001813  0.01054  -0.01776  -0.6497  -0.07859
6.535e+09  0.3633  0.8643  -0.006768  0.0136  -0.01026  0.01396  -0.629  0.1103
6.536e+09  0.619  0.6737  -0.001149  -0.0061  0.01718  0.02659  -0.5708  0.2997
6.538e+09  0.8336  0.4262  -0.005855  -0.004513  -0.01432  -0.008837  -0.4404  0.4861
6.539e+09  0.9177  0.1257  0.001123  0.005264  -0.005943  0.01187  -0.2579  0.6136
6.54e+09  0.9175  -0.1961  0.00624  0.002788  -0.005457  0.001162  -0.05691  0.6846
6.541e+09  0.7895  -0.4974  0.00254  0.0008664  -0.00416  0.01545  0.1855  0.665
6.542e+09  0.5615  -0.7218  0.0004892  0.005555  -0.01256  0.01155  0.4201  0.5848
